!Agilent Technologies,E5071C,MY46215201,A.10.06
!Date: Mon Jul 01 14:52:51 2019
!Data & Calibration Information:
!Freq	S11:SOLT2(ON)	S21:SOLT2(ON)	S12:SOLT2(ON)	S22:SOLT2(ON)
!PortZ  Port1:50+j0    Port2:50+j0
!Above PortZ is port z conversion or system Z0 setting when saving the data.
!When reading, reference impedance value at option line is always used.
# Hz S dB R 50
300000	-4.649383e-002	7.653731e-001	-6.790460e+001	-3.626472e+001	-7.532297e+001	-1.253911e+002	-2.391035e-002	6.500535e-001
12799813	-2.558799e-002	-1.276784e+000	-7.302651e+001	7.666384e+001	-7.202774e+001	1.010554e+002	1.211844e-001	-4.718821e+001
25299625	-2.830044e-002	-2.394510e+000	-6.617855e+001	8.827246e+001	-6.645123e+001	9.482779e+001	1.384481e-001	-9.432334e+001
37799438	-2.164351e-002	-3.502138e+000	-6.344399e+001	7.333406e+001	-6.290815e+001	9.517053e+001	6.932588e-002	-1.413296e+002
50299250	-2.047958e-002	-4.595091e+000	-6.226322e+001	7.666964e+001	-6.062284e+001	8.753819e+001	-2.862871e-002	1.716988e+002
62799063	-1.695006e-002	-5.672937e+000	-6.020754e+001	8.101933e+001	-5.897110e+001	8.400970e+001	-9.293353e-002	1.246306e+002
75298875	-1.247834e-002	-6.771289e+000	-5.787695e+001	8.283338e+001	-5.758880e+001	7.924583e+001	-1.053819e-001	7.742283e+001
87798688	-4.462673e-003	-7.868593e+000	-5.629681e+001	7.817519e+001	-5.612176e+001	8.000782e+001	-6.100396e-002	3.014499e+001
100298500	-6.789421e-003	-9.008047e+000	-5.522968e+001	7.385027e+001	-5.520123e+001	7.847728e+001	7.479889e-003	-1.723909e+001
112798313	-2.384064e-003	-1.011928e+001	-5.421058e+001	7.414824e+001	-5.447918e+001	7.490998e+001	3.342945e-002	-6.457276e+001
125298125	4.612486e-004	-1.125112e+001	-5.325617e+001	7.359423e+001	-5.330705e+001	7.324789e+001	2.797614e-002	-1.116054e+002
137797938	-5.017085e-004	-1.239390e+001	-5.247262e+001	7.132699e+001	-5.256278e+001	7.190258e+001	-5.411352e-003	-1.583418e+002
150297750	-3.294816e-003	-1.351931e+001	-5.167366e+001	7.032107e+001	-5.183566e+001	7.009784e+001	-4.972772e-002	1.549618e+002
162797563	-5.786088e-003	-1.468461e+001	-5.120386e+001	6.946846e+001	-5.113072e+001	6.908688e+001	-7.449877e-002	1.080490e+002
175297375	-4.277538e-003	-1.583119e+001	-5.038474e+001	6.686501e+001	-5.056662e+001	6.712641e+001	-6.669282e-002	6.072205e+001
187797188	-5.255692e-003	-1.698601e+001	-4.973844e+001	6.580443e+001	-4.980201e+001	6.544364e+001	-3.457023e-002	1.310491e+001
200297000	-7.362329e-003	-1.809560e+001	-4.925286e+001	6.320286e+001	-4.924549e+001	6.404571e+001	-1.470181e-003	-3.447753e+001
212796813	-9.255521e-003	-1.925931e+001	-4.881529e+001	6.198552e+001	-4.876350e+001	6.176076e+001	1.118199e-002	-8.179384e+001
225296625	-9.526387e-003	-2.035850e+001	-4.832482e+001	5.973680e+001	-4.832181e+001	5.993491e+001	-3.403251e-003	-1.287065e+002
237796438	-1.166069e-002	-2.154023e+001	-4.793501e+001	5.851582e+001	-4.791921e+001	5.848082e+001	-3.832911e-002	-1.752468e+002
250296250	-1.472464e-002	-2.266312e+001	-4.747851e+001	5.680350e+001	-4.751889e+001	5.665204e+001	-7.193643e-002	1.381592e+002
262796063	-1.559182e-002	-2.379813e+001	-4.700301e+001	5.579417e+001	-4.700521e+001	5.559249e+001	-8.458926e-002	9.123177e+001
275295875	-1.880622e-002	-2.495773e+001	-4.662236e+001	5.422365e+001	-4.660487e+001	5.403939e+001	-7.358382e-002	4.380484e+001
287795688	-2.093333e-002	-2.609437e+001	-4.623473e+001	5.248168e+001	-4.612780e+001	5.201264e+001	-4.624633e-002	-3.953939e+000
300295500	-2.291983e-002	-2.723567e+001	-4.591860e+001	4.995857e+001	-4.581449e+001	5.016355e+001	-2.328118e-002	-5.159743e+001
312795313	-2.527737e-002	-2.833078e+001	-4.551163e+001	4.870620e+001	-4.564677e+001	4.888184e+001	-9.537220e-003	-9.869947e+001
325295125	-2.784908e-002	-2.945818e+001	-4.526296e+001	4.740934e+001	-4.530579e+001	4.723611e+001	-2.627036e-002	-1.451968e+002
337794938	-2.808114e-002	-3.066592e+001	-4.498479e+001	4.581326e+001	-4.501505e+001	4.604202e+001	-6.316474e-002	1.685588e+002
350294750	-2.858753e-002	-3.178849e+001	-4.471921e+001	4.475896e+001	-4.466012e+001	4.502927e+001	-9.756826e-002	1.218721e+002
362794563	-3.026647e-002	-3.295605e+001	-4.432748e+001	4.302080e+001	-4.438390e+001	4.347165e+001	-1.166517e-001	7.458493e+001
375294375	-3.129372e-002	-3.413503e+001	-4.402834e+001	4.100028e+001	-4.400843e+001	4.096991e+001	-1.108186e-001	2.672374e+001
387794188	-3.202340e-002	-3.520536e+001	-4.371436e+001	3.892178e+001	-4.375391e+001	3.889892e+001	-7.611102e-002	-2.127409e+001
400294000	-3.740653e-002	-3.634630e+001	-4.355328e+001	3.685337e+001	-4.350607e+001	3.696281e+001	-4.505263e-002	-6.869679e+001
412793813	-4.241456e-002	-3.746187e+001	-4.337878e+001	3.587483e+001	-4.330929e+001	3.585795e+001	-4.006973e-002	-1.152160e+002
425293625	-4.387917e-002	-3.858618e+001	-4.313423e+001	3.470351e+001	-4.307705e+001	3.437005e+001	-6.613227e-002	-1.613614e+002
437793438	-4.177621e-002	-3.970943e+001	-4.286113e+001	3.321187e+001	-4.280931e+001	3.314471e+001	-1.085870e-001	1.521750e+002
450293250	-3.828741e-002	-4.082187e+001	-4.246615e+001	3.184553e+001	-4.251282e+001	3.122987e+001	-1.414013e-001	1.049050e+002
462793063	-4.437736e-002	-4.196928e+001	-4.226190e+001	2.938127e+001	-4.227463e+001	2.957278e+001	-1.474653e-001	5.692666e+001
475292875	-4.585974e-002	-4.312867e+001	-4.208384e+001	2.776288e+001	-4.207946e+001	2.729044e+001	-1.240319e-001	8.749893e+000
487792688	-4.454824e-002	-4.426138e+001	-4.190033e+001	2.539709e+001	-4.196211e+001	2.547567e+001	-9.228482e-002	-3.896288e+001
500292500	-4.046370e-002	-4.539381e+001	-4.186810e+001	2.375159e+001	-4.181473e+001	2.391720e+001	-7.568438e-002	-8.581060e+001
512792313	-3.990325e-002	-4.649726e+001	-4.163832e+001	2.291053e+001	-4.167190e+001	2.257196e+001	-9.330776e-002	-1.321336e+002
525292125	-3.919492e-002	-4.763584e+001	-4.141393e+001	2.161837e+001	-4.151684e+001	2.133914e+001	-1.252199e-001	-1.785737e+002
537791938	-3.958061e-002	-4.877167e+001	-4.110847e+001	2.012710e+001	-4.124396e+001	1.995130e+001	-1.546570e-001	1.344296e+002
550291750	-3.951892e-002	-4.991021e+001	-4.098665e+001	1.823397e+001	-4.100515e+001	1.811294e+001	-1.703258e-001	8.683054e+001
562791563	-3.814907e-002	-5.103717e+001	-4.080981e+001	1.584920e+001	-4.085505e+001	1.628434e+001	-1.633320e-001	3.892131e+001
575291375	-3.619284e-002	-5.217545e+001	-4.068167e+001	1.396960e+001	-4.071516e+001	1.422002e+001	-1.422548e-001	-8.868723e+000
587791188	-3.597208e-002	-5.329936e+001	-4.060183e+001	1.235835e+001	-4.057645e+001	1.251824e+001	-1.226412e-001	-5.612952e+001
600291000	-3.821157e-002	-5.442041e+001	-4.052152e+001	1.100652e+001	-4.044478e+001	1.123033e+001	-1.097062e-001	-1.027853e+002
612790813	-3.590142e-002	-5.552606e+001	-4.029702e+001	9.376090e+000	-4.028825e+001	9.529342e+000	-1.294499e-001	-1.491531e+002
625290625	-3.616248e-002	-5.664561e+001	-4.019362e+001	7.751800e+000	-4.012337e+001	8.289536e+000	-1.663023e-001	1.642706e+002
637790438	-3.524909e-002	-5.779124e+001	-4.004661e+001	6.277489e+000	-3.994179e+001	6.779529e+000	-2.021264e-001	1.171455e+002
650290250	-3.549050e-002	-5.892623e+001	-3.986867e+001	4.967024e+000	-3.979167e+001	5.020456e+000	-2.203705e-001	6.948079e+001
662790063	-3.592449e-002	-6.006075e+001	-3.972270e+001	2.925329e+000	-3.965669e+001	2.706473e+000	-2.113717e-001	2.157705e+001
675289875	-3.635343e-002	-6.116956e+001	-3.961093e+001	1.076671e+000	-3.955421e+001	8.742186e-001	-1.850582e-001	-2.611365e+001
687789688	-3.769494e-002	-6.229347e+001	-3.948553e+001	-5.923793e-001	-3.949321e+001	-6.505629e-001	-1.608041e-001	-7.322831e+001
700289500	-4.017325e-002	-6.344739e+001	-3.943711e+001	-2.249862e+000	-3.941578e+001	-2.094111e+000	-1.539756e-001	-1.197358e+002
712789313	-3.912135e-002	-6.458052e+001	-3.931867e+001	-3.115885e+000	-3.932569e+001	-3.262010e+000	-1.776170e-001	-1.659426e+002
725289125	-4.282265e-002	-6.570694e+001	-3.913366e+001	-4.482071e+000	-3.916304e+001	-4.729467e+000	-2.203411e-001	1.474913e+002
737788938	-4.405256e-002	-6.683276e+001	-3.892338e+001	-6.197680e+000	-3.899648e+001	-6.465240e+000	-2.617641e-001	1.001617e+002
750288750	-4.855625e-002	-6.798196e+001	-3.879255e+001	-8.682220e+000	-3.887718e+001	-8.325909e+000	-2.788321e-001	5.217349e+001
762788563	-5.007973e-002	-6.911436e+001	-3.873404e+001	-1.103097e+001	-3.877745e+001	-1.035445e+001	-2.624897e-001	4.022570e+000
775288375	-5.325929e-002	-7.023716e+001	-3.876002e+001	-1.257709e+001	-3.871853e+001	-1.215511e+001	-2.259603e-001	-4.362299e+001
787788188	-5.707727e-002	-7.136203e+001	-3.872113e+001	-1.397041e+001	-3.867327e+001	-1.382673e+001	-2.009290e-001	-9.042549e+001
800288000	-6.025029e-002	-7.247213e+001	-3.864177e+001	-1.504152e+001	-3.861242e+001	-1.485553e+001	-2.059804e-001	-1.365669e+002
812787813	-6.491275e-002	-7.359415e+001	-3.848267e+001	-1.633686e+001	-3.848243e+001	-1.610012e+001	-2.371895e-001	1.773034e+002
825287625	-6.984604e-002	-7.472045e+001	-3.833956e+001	-1.786806e+001	-3.831619e+001	-1.768490e+001	-2.809309e-001	1.303662e+002
837787438	-7.340991e-002	-7.585958e+001	-3.818464e+001	-1.972276e+001	-3.816986e+001	-1.972669e+001	-3.133571e-001	8.242701e+001
850287250	-7.715786e-002	-7.700108e+001	-3.813281e+001	-2.205101e+001	-3.807059e+001	-2.196791e+001	-3.159776e-001	3.397907e+001
862787063	-8.151156e-002	-7.812076e+001	-3.810518e+001	-2.394513e+001	-3.806740e+001	-2.376714e+001	-2.896071e-001	-1.410871e+001
875286875	-8.592604e-002	-7.923531e+001	-3.812245e+001	-2.559703e+001	-3.807475e+001	-2.564367e+001	-2.592612e-001	-6.122128e+001
887786688	-8.942000e-002	-8.035470e+001	-3.805613e+001	-2.664142e+001	-3.804972e+001	-2.685609e+001	-2.465934e-001	-1.073838e+002
900286500	-9.482196e-002	-8.147321e+001	-3.800382e+001	-2.801998e+001	-3.799881e+001	-2.803331e+001	-2.610973e-001	-1.532276e+002
912786313	-9.703859e-002	-8.257854e+001	-3.785574e+001	-2.944421e+001	-3.787996e+001	-2.932629e+001	-2.936586e-001	1.602058e+002
925286125	-9.860940e-002	-8.370276e+001	-3.775107e+001	-3.109133e+001	-3.777802e+001	-3.095544e+001	-3.266739e-001	1.126376e+002
937785938	-1.000725e-001	-8.481563e+001	-3.764474e+001	-3.282913e+001	-3.768388e+001	-3.319009e+001	-3.409225e-001	6.440496e+001
950285750	-1.018960e-001	-8.593107e+001	-3.761697e+001	-3.473569e+001	-3.765742e+001	-3.488596e+001	-3.298551e-001	1.622795e+001
962785563	-1.017168e-001	-8.707555e+001	-3.762058e+001	-3.661944e+001	-3.767163e+001	-3.664532e+001	-3.030802e-001	-3.119186e+001
975285375	-1.026521e-001	-8.823213e+001	-3.765635e+001	-3.826959e+001	-3.766376e+001	-3.809587e+001	-2.818404e-001	-7.771194e+001
987785188	-1.039711e-001	-8.938734e+001	-3.764045e+001	-3.953821e+001	-3.760515e+001	-3.924042e+001	-2.779613e-001	-1.237178e+002
1000285000	-1.047326e-001	-9.053824e+001	-3.754005e+001	-4.042190e+001	-3.751314e+001	-4.058032e+001	-2.974928e-001	-1.698478e+002
1012784813	-1.059164e-001	-9.167487e+001	-3.739536e+001	-4.194586e+001	-3.737351e+001	-4.192671e+001	-3.331964e-001	1.436334e+002
1025284625	-1.067641e-001	-9.279983e+001	-3.725204e+001	-4.365816e+001	-3.723843e+001	-4.373235e+001	-3.735029e-001	9.616665e+001
1037784438	-1.076810e-001	-9.392334e+001	-3.718317e+001	-4.588607e+001	-3.716171e+001	-4.601771e+001	-3.955065e-001	4.779812e+001
1050284250	-1.102299e-001	-9.504595e+001	-3.719037e+001	-4.828316e+001	-3.713376e+001	-4.833572e+001	-3.840467e-001	-7.989868e-001
1062784063	-1.104395e-001	-9.620171e+001	-3.727644e+001	-5.024012e+001	-3.719002e+001	-5.014076e+001	-3.470243e-001	-4.862280e+001
1075283875	-1.107509e-001	-9.735112e+001	-3.733004e+001	-5.136706e+001	-3.728343e+001	-5.162758e+001	-3.142881e-001	-9.517751e+001
1087783688	-1.103368e-001	-9.849208e+001	-3.733732e+001	-5.231517e+001	-3.725989e+001	-5.256485e+001	-3.069551e-001	-1.407767e+002
1100283500	-1.094332e-001	-9.964256e+001	-3.717922e+001	-5.327950e+001	-3.717390e+001	-5.348419e+001	-3.329903e-001	1.736132e+002
1112783313	-1.119032e-001	-1.007980e+002	-3.702531e+001	-5.517069e+001	-3.707792e+001	-5.518103e+001	-3.849497e-001	1.262537e+002
1125283125	-1.136095e-001	-1.019399e+002	-3.694861e+001	-5.752172e+001	-3.699752e+001	-5.775279e+001	-4.194022e-001	7.740854e+001
1137782938	-1.118527e-001	-1.030789e+002	-3.701465e+001	-5.977078e+001	-3.703378e+001	-5.986736e+001	-4.119702e-001	2.828904e+001
1150282750	-1.113875e-001	-1.042078e+002	-3.708604e+001	-6.155839e+001	-3.713437e+001	-6.170491e+001	-3.792542e-001	-1.979209e+001
1162782563	-1.162922e-001	-1.053602e+002	-3.718091e+001	-6.282865e+001	-3.723513e+001	-6.295674e+001	-3.204993e-001	-6.615548e+001
1175282375	-1.191523e-001	-1.065103e+002	-3.720347e+001	-6.389196e+001	-3.723305e+001	-6.384961e+001	-2.963125e-001	-1.113682e+002
1187782188	-1.211286e-001	-1.076637e+002	-3.716603e+001	-6.472040e+001	-3.712295e+001	-6.469131e+001	-3.156608e-001	-1.565917e+002
1200282000	-1.225786e-001	-1.088175e+002	-3.701518e+001	-6.598259e+001	-3.699408e+001	-6.597383e+001	-3.642276e-001	1.570081e+002
1212781813	-1.229406e-001	-1.099308e+002	-3.688896e+001	-6.792365e+001	-3.687938e+001	-6.814612e+001	-4.106159e-001	1.086530e+002
1225281625	-1.232489e-001	-1.110491e+002	-3.682691e+001	-7.031517e+001	-3.688779e+001	-7.047254e+001	-4.292482e-001	5.983495e+001
1237781438	-1.234392e-001	-1.121938e+002	-3.689811e+001	-7.296066e+001	-3.695592e+001	-7.251968e+001	-4.178367e-001	1.161129e+001
1250281250	-1.260825e-001	-1.133460e+002	-3.705763e+001	-7.484638e+001	-3.701990e+001	-7.395310e+001	-3.968519e-001	-3.532208e+001
1262781063	-1.201051e-001	-1.144573e+002	-3.720645e+001	-7.590115e+001	-3.709604e+001	-7.514995e+001	-3.552114e-001	-8.144329e+001
1275280875	-1.170274e-001	-1.155775e+002	-3.724758e+001	-7.625785e+001	-3.710306e+001	-7.610478e+001	-3.358746e-001	-1.268924e+002
1287780688	-1.189876e-001	-1.167155e+002	-3.710754e+001	-7.680299e+001	-3.704306e+001	-7.713098e+001	-3.501384e-001	-1.726390e+002
1300280500	-1.262558e-001	-1.178598e+002	-3.693082e+001	-7.883899e+001	-3.694915e+001	-7.884532e+001	-4.017684e-001	1.403898e+002
1312780313	-1.167437e-001	-1.190191e+002	-3.686751e+001	-8.112264e+001	-3.689368e+001	-8.123154e+001	-4.626288e-001	9.139898e+001
1325280125	-1.123115e-001	-1.201682e+002	-3.694117e+001	-8.397614e+001	-3.699592e+001	-8.366242e+001	-4.881342e-001	4.241991e+001
1337779938	-1.138004e-001	-1.213072e+002	-3.714005e+001	-8.597324e+001	-3.712307e+001	-8.538329e+001	-4.521980e-001	-5.245026e+000
1350279750	-1.239618e-001	-1.224135e+002	-3.728378e+001	-8.656304e+001	-3.727092e+001	-8.632715e+001	-3.631642e-001	-5.124855e+001
1362779563	-1.199514e-001	-1.236453e+002	-3.733709e+001	-8.665704e+001	-3.727784e+001	-8.679780e+001	-3.484637e-001	-9.611912e+001
1375279375	-1.199744e-001	-1.248148e+002	-3.723111e+001	-8.734076e+001	-3.720075e+001	-8.789219e+001	-3.494574e-001	-1.413534e+002
1387779188	-1.219353e-001	-1.259173e+002	-3.708619e+001	-8.920239e+001	-3.709500e+001	-8.912325e+001	-3.824198e-001	1.719964e+002
1400279000	-1.231359e-001	-1.269423e+002	-3.699717e+001	-9.120219e+001	-3.697836e+001	-9.116819e+001	-4.344259e-001	1.236993e+002
1412778813	-1.410427e-001	-1.281722e+002	-3.705304e+001	-9.385822e+001	-3.700207e+001	-9.384709e+001	-4.775333e-001	7.467617e+001
1425278625	-1.501507e-001	-1.293262e+002	-3.719101e+001	-9.566363e+001	-3.712137e+001	-9.599631e+001	-4.694799e-001	2.631722e+001
1437778438	-1.478681e-001	-1.304245e+002	-3.732868e+001	-9.702491e+001	-3.729599e+001	-9.729723e+001	-4.258131e-001	-2.052671e+001
1450278250	-1.338907e-001	-1.314859e+002	-3.740857e+001	-9.790230e+001	-3.737859e+001	-9.824544e+001	-3.823788e-001	-6.605260e+001
1462778063	-1.522455e-001	-1.326013e+002	-3.737938e+001	-9.870704e+001	-3.736826e+001	-9.883871e+001	-3.479146e-001	-1.110070e+002
1475277875	-1.570121e-001	-1.337214e+002	-3.730687e+001	-9.973370e+001	-3.733437e+001	-9.981509e+001	-3.601917e-001	-1.567977e+002
1487777688	-1.528678e-001	-1.348735e+002	-3.726115e+001	-1.014790e+002	-3.723468e+001	-1.017398e+002	-4.105938e-001	1.558056e+002
1500277500	-1.427306e-001	-1.360713e+002	-3.723951e+001	-1.040414e+002	-3.718417e+001	-1.041496e+002	-4.669568e-001	1.069895e+002
1512777313	-1.488544e-001	-1.371463e+002	-3.729057e+001	-1.059804e+002	-3.730777e+001	-1.064721e+002	-4.894827e-001	5.818124e+001
1525277125	-1.521845e-001	-1.382694e+002	-3.745033e+001	-1.077469e+002	-3.750579e+001	-1.083718e+002	-4.658499e-001	1.047801e+001
1537776938	-1.528598e-001	-1.394245e+002	-3.758323e+001	-1.092941e+002	-3.766001e+001	-1.092915e+002	-4.179835e-001	-3.575102e+001
1550276750	-1.539220e-001	-1.406192e+002	-3.765180e+001	-1.102683e+002	-3.773814e+001	-1.101961e+002	-3.805233e-001	-8.102840e+001
1562776563	-1.536188e-001	-1.418040e+002	-3.768199e+001	-1.111277e+002	-3.772875e+001	-1.106474e+002	-3.696982e-001	-1.263870e+002
1575276375	-1.557033e-001	-1.429414e+002	-3.763308e+001	-1.122651e+002	-3.763600e+001	-1.121217e+002	-3.920489e-001	-1.728258e+002
1587776188	-1.580637e-001	-1.441031e+002	-3.754676e+001	-1.139003e+002	-3.756325e+001	-1.141451e+002	-4.444188e-001	1.392084e+002
1600276000	-1.607881e-001	-1.452717e+002	-3.755854e+001	-1.167987e+002	-3.755649e+001	-1.165292e+002	-4.954642e-001	9.021905e+001
1612775813	-1.613179e-001	-1.464146e+002	-3.776548e+001	-1.191473e+002	-3.773420e+001	-1.187093e+002	-4.991717e-001	4.150090e+001
1625275625	-1.630831e-001	-1.475604e+002	-3.799642e+001	-1.206623e+002	-3.793236e+001	-1.200156e+002	-4.611552e-001	-5.461389e+000
1637775438	-1.644134e-001	-1.487178e+002	-3.813622e+001	-1.209498e+002	-3.803596e+001	-1.210646e+002	-4.125576e-001	-5.076167e+001
1650275250	-1.665316e-001	-1.498758e+002	-3.819909e+001	-1.213119e+002	-3.810558e+001	-1.214814e+002	-3.804403e-001	-9.554300e+001
1662775063	-1.680466e-001	-1.510264e+002	-3.804865e+001	-1.225051e+002	-3.801016e+001	-1.226828e+002	-3.827260e-001	-1.411773e+002
1675274875	-1.700830e-001	-1.521785e+002	-3.796104e+001	-1.244499e+002	-3.794152e+001	-1.243983e+002	-4.260339e-001	1.714528e+002
1687774688	-1.720944e-001	-1.533405e+002	-3.801403e+001	-1.268978e+002	-3.800512e+001	-1.269493e+002	-4.847762e-001	1.225351e+002
1700274500	-1.743966e-001	-1.545011e+002	-3.812387e+001	-1.294166e+002	-3.814177e+001	-1.295986e+002	-5.197252e-001	7.336838e+001
1712774313	-1.753481e-001	-1.556656e+002	-3.837828e+001	-1.312696e+002	-3.839134e+001	-1.312450e+002	-5.053680e-001	2.564414e+001
1725274125	-1.769268e-001	-1.568335e+002	-3.861391e+001	-1.320429e+002	-3.863251e+001	-1.323590e+002	-4.643387e-001	-2.058668e+001
1737773938	-1.781318e-001	-1.580085e+002	-3.867703e+001	-1.327009e+002	-3.872641e+001	-1.332156e+002	-4.230214e-001	-6.593458e+001
1750273750	-1.812602e-001	-1.591754e+002	-3.864950e+001	-1.332654e+002	-3.876863e+001	-1.336777e+002	-4.032790e-001	-1.114491e+002
1762773563	-1.825447e-001	-1.603464e+002	-3.861580e+001	-1.352226e+002	-3.873966e+001	-1.353771e+002	-4.161221e-001	-1.580268e+002
1775273375	-1.837726e-001	-1.615083e+002	-3.868152e+001	-1.373573e+002	-3.872447e+001	-1.372729e+002	-4.587560e-001	1.539825e+002
1787773188	-1.863322e-001	-1.626778e+002	-3.876068e+001	-1.395899e+002	-3.879507e+001	-1.395631e+002	-5.102496e-001	1.050904e+002
1800273000	-1.890776e-001	-1.638371e+002	-3.895465e+001	-1.420255e+002	-3.893935e+001	-1.418268e+002	-5.334604e-001	5.643474e+001
1812772813	-1.902196e-001	-1.649957e+002	-3.920475e+001	-1.435137e+002	-3.913712e+001	-1.431752e+002	-4.878017e-001	9.406476e+000
1825272625	-1.901533e-001	-1.661574e+002	-3.944533e+001	-1.445796e+002	-3.937179e+001	-1.438944e+002	-4.313674e-001	-3.641626e+001
1837772438	-1.912247e-001	-1.673188e+002	-3.952521e+001	-1.451992e+002	-3.944539e+001	-1.449271e+002	-4.018791e-001	-8.183481e+001
1850272250	-1.929816e-001	-1.684828e+002	-3.962675e+001	-1.460874e+002	-3.947473e+001	-1.462580e+002	-4.178515e-001	-1.278200e+002
1862772063	-1.926776e-001	-1.696409e+002	-3.962890e+001	-1.476179e+002	-3.950551e+001	-1.480705e+002	-4.614718e-001	-1.750010e+002
1875271875	-1.925084e-001	-1.708074e+002	-3.964435e+001	-1.497534e+002	-3.959939e+001	-1.501594e+002	-5.189363e-001	1.365738e+002
