!Agilent Technologies,E5071C,MY46215201,A.10.06
!Date: Mon Jul 01 14:51:57 2019
!Data & Calibration Information:
!Freq	S11:SOLT2(ON)	S21:SOLT2(ON)	S12:SOLT2(ON)	S22:SOLT2(ON)
!PortZ  Port1:50+j0    Port2:50+j0
!Above PortZ is port z conversion or system Z0 setting when saving the data.
!When reading, reference impedance value at option line is always used.
# Hz S dB R 50
300000	-4.675015e-002	7.810299e-001	-9.987256e+001	6.285494e+001	-1.054274e+002	-3.510869e+001	-2.515208e-002	6.388486e-001
12799813	-2.568863e-002	-1.274282e+000	-1.085869e+002	1.651375e+001	-1.171368e+002	-1.224556e+000	1.208521e-001	-4.715776e+001
25299625	-2.808172e-002	-2.391924e+000	-1.175627e+002	5.580633e+001	-1.132397e+002	-1.192143e+000	1.380926e-001	-9.425943e+001
37799438	-2.151967e-002	-3.506623e+000	-1.044886e+002	7.244976e+001	-1.035701e+002	1.191061e+002	6.990850e-002	-1.412266e+002
50299250	-2.043722e-002	-4.594117e+000	-1.146253e+002	6.470506e+001	-1.311884e+002	-4.306745e+001	-2.832857e-002	1.718353e+002
62799063	-1.653243e-002	-5.676865e+000	-1.069261e+002	9.183389e+001	-1.066654e+002	1.031326e+002	-9.246600e-002	1.247998e+002
75298875	-1.334689e-002	-6.775084e+000	-1.080922e+002	7.699622e+001	-1.049322e+002	9.172274e+001	-1.051138e-001	7.762648e+001
87798688	-5.056727e-003	-7.864817e+000	-1.028629e+002	1.249616e+002	-1.063446e+002	8.819790e+001	-6.018596e-002	3.038883e+001
100298500	-7.094320e-003	-9.006961e+000	-1.171186e+002	1.431922e+002	-1.073991e+002	6.369091e+001	7.804082e-003	-1.696192e+001
112798313	-1.033472e-003	-1.011712e+001	-1.036750e+002	4.983829e+001	-1.019671e+002	7.192555e+001	3.417131e-002	-6.426750e+001
125298125	-5.088440e-004	-1.125156e+001	-1.056462e+002	6.960612e+001	-1.042307e+002	8.915841e+001	3.042421e-002	-1.112724e+002
137797938	1.071735e-004	-1.239480e+001	-1.010152e+002	8.577924e+001	-1.005123e+002	6.176610e+001	-3.661447e-003	-1.579796e+002
150297750	-3.134384e-003	-1.352201e+001	-9.873087e+001	6.865445e+001	-1.007052e+002	7.503527e+001	-4.845224e-002	1.553534e+002
162797563	-5.354651e-003	-1.468236e+001	-9.820883e+001	6.010128e+001	-9.889477e+001	8.054744e+001	-7.442969e-002	1.084795e+002
175297375	-3.844528e-003	-1.583280e+001	-1.008559e+002	7.911163e+001	-9.916513e+001	6.655412e+001	-6.625522e-002	6.118376e+001
187797188	-5.054649e-003	-1.698318e+001	-9.832621e+001	6.480367e+001	-1.001988e+002	6.531447e+001	-3.412073e-002	1.359955e+001
200297000	-6.432949e-003	-1.809305e+001	-9.707757e+001	7.506235e+001	-9.677755e+001	6.840802e+001	-1.882283e-003	-3.395710e+001
212796813	-8.518604e-003	-1.925853e+001	-9.814213e+001	5.365025e+001	-9.782702e+001	6.656418e+001	1.000883e-002	-8.124942e+001
225296625	-8.943727e-003	-2.035574e+001	-9.644597e+001	5.459468e+001	-9.609575e+001	6.229703e+001	-4.308712e-003	-1.281459e+002
237796438	-1.183441e-002	-2.153178e+001	-9.520381e+001	5.592271e+001	-9.515328e+001	6.117181e+001	-3.938153e-002	-1.746738e+002
250296250	-1.405469e-002	-2.266190e+001	-9.568105e+001	5.900461e+001	-9.599135e+001	6.333904e+001	-7.401229e-002	1.387585e+002
262796063	-1.574001e-002	-2.379816e+001	-9.591786e+001	6.127135e+001	-9.453590e+001	5.844457e+001	-8.767782e-002	9.185936e+001
275295875	-1.853748e-002	-2.495844e+001	-9.530289e+001	4.551830e+001	-9.415495e+001	5.373550e+001	-7.762889e-002	4.445853e+001
287795688	-2.050057e-002	-2.608750e+001	-9.507020e+001	5.960014e+001	-9.455708e+001	5.285515e+001	-5.051219e-002	-3.272526e+000
300295500	-2.285255e-002	-2.723399e+001	-9.387119e+001	5.602997e+001	-9.365819e+001	5.048555e+001	-2.763687e-002	-5.089627e+001
312795313	-2.468500e-002	-2.833187e+001	-9.349858e+001	4.762242e+001	-9.413040e+001	5.102829e+001	-1.337635e-002	-9.798389e+001
325295125	-2.686816e-002	-2.945584e+001	-9.314434e+001	3.888644e+001	-9.292357e+001	3.722804e+001	-3.173593e-002	-1.444540e+002
337794938	-2.704272e-002	-3.066484e+001	-9.318420e+001	4.726283e+001	-9.320976e+001	5.031225e+001	-6.848765e-002	1.693193e+002
350294750	-2.745463e-002	-3.178436e+001	-9.315954e+001	4.420964e+001	-9.361613e+001	4.499548e+001	-1.039202e-001	1.226629e+002
362794563	-2.966451e-002	-3.294904e+001	-9.178017e+001	4.555466e+001	-9.331807e+001	4.569210e+001	-1.235314e-001	7.541088e+001
375294375	-3.077428e-002	-3.413480e+001	-9.148220e+001	4.226801e+001	-9.301723e+001	4.510022e+001	-1.189076e-001	2.756840e+001
387794188	-3.121714e-002	-3.520282e+001	-9.171269e+001	3.536750e+001	-9.191644e+001	3.988943e+001	-8.595777e-002	-2.042568e+001
400294000	-3.684431e-002	-3.634433e+001	-9.138291e+001	3.749230e+001	-9.120568e+001	3.818209e+001	-5.581565e-002	-6.785284e+001
412793813	-4.168973e-002	-3.745798e+001	-9.176501e+001	3.326701e+001	-9.085359e+001	4.022631e+001	-5.075622e-002	-1.143718e+002
425293625	-4.295806e-002	-3.858459e+001	-9.075364e+001	3.474336e+001	-9.090762e+001	3.466494e+001	-7.756443e-002	-1.605089e+002
437793438	-4.116620e-002	-3.970612e+001	-9.126404e+001	3.702964e+001	-9.050507e+001	3.346375e+001	-1.201744e-001	1.530506e+002
450293250	-3.813030e-002	-4.082376e+001	-9.072640e+001	3.423728e+001	-9.067269e+001	3.129665e+001	-1.542361e-001	1.058133e+002
462793063	-4.342260e-002	-4.196961e+001	-8.981160e+001	2.618896e+001	-8.989489e+001	3.124082e+001	-1.628192e-001	5.786624e+001
475292875	-4.547293e-002	-4.312385e+001	-8.922425e+001	2.735720e+001	-8.942639e+001	2.804784e+001	-1.408980e-001	9.695226e+000
487792688	-4.361451e-002	-4.425560e+001	-8.915829e+001	2.431259e+001	-8.929560e+001	2.477921e+001	-1.098123e-001	-3.801643e+001
500292500	-4.030235e-002	-4.539167e+001	-8.926041e+001	2.452843e+001	-8.883087e+001	2.288030e+001	-9.336349e-002	-8.487034e+001
512792313	-3.957580e-002	-4.648908e+001	-8.869391e+001	2.275335e+001	-8.964040e+001	2.137545e+001	-1.112721e-001	-1.311944e+002
525292125	-3.860884e-002	-4.763501e+001	-8.942783e+001	2.658186e+001	-8.857462e+001	2.434942e+001	-1.447965e-001	-1.776254e+002
537791938	-3.824663e-002	-4.876392e+001	-8.921858e+001	1.448843e+001	-8.897404e+001	1.829905e+001	-1.761836e-001	1.353928e+002
550291750	-3.879582e-002	-4.990758e+001	-8.829063e+001	1.321743e+001	-8.735182e+001	2.017868e+001	-1.923839e-001	8.780033e+001
562791563	-3.671052e-002	-5.103302e+001	-8.763769e+001	1.449335e+001	-8.795004e+001	1.754149e+001	-1.876570e-001	3.988776e+001
575291375	-3.547527e-002	-5.216740e+001	-8.772173e+001	1.647828e+001	-8.755485e+001	1.275819e+001	-1.683532e-001	-7.906299e+000
587791188	-3.534476e-002	-5.329776e+001	-8.697351e+001	1.215593e+001	-8.752612e+001	1.654494e+001	-1.473768e-001	-5.517978e+001
600291000	-3.694737e-002	-5.441473e+001	-8.720711e+001	1.134355e+001	-8.658246e+001	1.247599e+001	-1.352595e-001	-1.018404e+002
612790813	-3.551043e-002	-5.552302e+001	-8.683807e+001	8.773970e+000	-8.650777e+001	1.129554e+001	-1.551608e-001	-1.481956e+002
625290625	-3.501935e-002	-5.664572e+001	-8.661399e+001	6.195396e+000	-8.678664e+001	8.560256e+000	-1.928130e-001	1.652350e+002
637790438	-3.492041e-002	-5.778439e+001	-8.577841e+001	7.933108e+000	-8.597403e+001	8.382993e+000	-2.308370e-001	1.181272e+002
650290250	-3.500382e-002	-5.892060e+001	-8.604213e+001	1.011416e+000	-8.602592e+001	3.254865e+000	-2.508488e-001	7.045770e+001
662790063	-3.503042e-002	-6.005133e+001	-8.641115e+001	1.230208e+000	-8.547961e+001	1.986909e+000	-2.434690e-001	2.254557e+001
675289875	-3.554174e-002	-6.116533e+001	-8.544974e+001	4.775822e-001	-8.550416e+001	-2.775337e+000	-2.183995e-001	-2.516719e+001
687789688	-3.686983e-002	-6.228922e+001	-8.545462e+001	-1.512983e+000	-8.506747e+001	7.056341e-001	-1.944748e-001	-7.230903e+001
700289500	-3.825530e-002	-6.344080e+001	-8.507380e+001	-6.074204e+000	-8.487999e+001	-3.107770e-001	-1.878117e-001	-1.188311e+002
712789313	-3.933311e-002	-6.457799e+001	-8.453581e+001	-4.247271e+000	-8.446339e+001	-2.520976e+000	-2.119801e-001	-1.650376e+002
725289125	-4.132335e-002	-6.570160e+001	-8.443590e+001	-3.709665e+000	-8.450922e+001	-4.982403e+000	-2.560944e-001	1.484025e+002
737788938	-4.421443e-002	-6.682722e+001	-8.431586e+001	-5.470344e+000	-8.382977e+001	-7.114371e+000	-2.984884e-001	1.010900e+002
750288750	-4.693990e-002	-6.797811e+001	-8.381300e+001	-5.939597e+000	-8.420784e+001	-8.556148e+000	-3.166877e-001	5.310531e+001
762788563	-4.936875e-002	-6.910712e+001	-8.372302e+001	-1.203910e+001	-8.398338e+001	-9.724386e+000	-3.016326e-001	4.947905e+000
775288375	-5.201562e-002	-7.022701e+001	-8.354304e+001	-1.286187e+001	-8.360606e+001	-1.304786e+001	-2.663548e-001	-4.272870e+001
787788188	-5.551448e-002	-7.135356e+001	-8.332898e+001	-1.404304e+001	-8.330632e+001	-1.501866e+001	-2.411604e-001	-8.955878e+001
800288000	-5.933832e-002	-7.246632e+001	-8.333951e+001	-1.458291e+001	-8.307863e+001	-1.473936e+001	-2.457735e-001	-1.357203e+002
812787813	-6.350729e-002	-7.358628e+001	-8.262381e+001	-1.543404e+001	-8.271950e+001	-1.539748e+001	-2.790041e-001	1.781468e+002
825287625	-6.778057e-002	-7.471878e+001	-8.257893e+001	-1.800332e+001	-8.231646e+001	-1.847397e+001	-3.237456e-001	1.312077e+002
837787438	-7.196528e-002	-7.585578e+001	-8.206871e+001	-2.085743e+001	-8.227717e+001	-2.070990e+001	-3.583015e-001	8.327020e+001
850287250	-7.589768e-002	-7.699223e+001	-8.192811e+001	-2.021264e+001	-8.191459e+001	-2.119729e+001	-3.625544e-001	3.480973e+001
862787063	-8.022410e-002	-7.811667e+001	-8.199482e+001	-2.301973e+001	-8.160666e+001	-2.612386e+001	-3.359123e-001	-1.329781e+001
875286875	-8.414039e-002	-7.923096e+001	-8.183657e+001	-2.665275e+001	-8.164495e+001	-2.523655e+001	-3.049120e-001	-6.043807e+001
887786688	-8.829994e-002	-8.034747e+001	-8.162530e+001	-2.883514e+001	-8.165300e+001	-2.662690e+001	-2.909789e-001	-1.066212e+002
900286500	-9.258407e-002	-8.146716e+001	-8.094241e+001	-2.972142e+001	-8.119325e+001	-2.920276e+001	-3.051055e-001	-1.524702e+002
912786313	-9.491250e-002	-8.257369e+001	-8.088305e+001	-2.951434e+001	-8.070425e+001	-3.110639e+001	-3.394596e-001	1.609644e+002
925286125	-9.658640e-002	-8.369232e+001	-8.053734e+001	-3.201170e+001	-8.048404e+001	-3.133243e+001	-3.737333e-001	1.134009e+002
937785938	-9.821511e-002	-8.481116e+001	-8.029641e+001	-3.365144e+001	-8.019162e+001	-3.360703e+001	-3.893409e-001	6.515530e+001
950285750	-9.976018e-002	-8.592702e+001	-7.987082e+001	-3.650564e+001	-7.970942e+001	-3.573265e+001	-3.783041e-001	1.696190e+001
962785563	-9.971332e-002	-8.707213e+001	-7.967254e+001	-3.823542e+001	-7.957596e+001	-3.822347e+001	-3.517983e-001	-3.049276e+001
975285375	-1.004275e-001	-8.822458e+001	-7.940457e+001	-3.864111e+001	-7.953185e+001	-3.900389e+001	-3.287336e-001	-7.703215e+001
987785188	-1.015715e-001	-8.937910e+001	-7.922963e+001	-4.038300e+001	-7.911570e+001	-3.888480e+001	-3.243452e-001	-1.230518e+002
1000285000	-1.032047e-001	-9.053065e+001	-7.866030e+001	-4.302998e+001	-7.873044e+001	-4.202022e+001	-3.445171e-001	-1.691844e+002
1012784813	-1.039198e-001	-9.166661e+001	-7.845215e+001	-4.263234e+001	-7.832388e+001	-4.157862e+001	-3.810022e-001	1.442993e+002
1025284625	-1.052233e-001	-9.279388e+001	-7.791209e+001	-4.496023e+001	-7.805385e+001	-4.431653e+001	-4.225264e-001	9.683768e+001
1037784438	-1.068043e-001	-9.391911e+001	-7.745780e+001	-4.589230e+001	-7.762012e+001	-4.644356e+001	-4.453802e-001	4.846287e+001
1050284250	-1.082188e-001	-9.504483e+001	-7.735131e+001	-4.998159e+001	-7.731191e+001	-5.001317e+001	-4.351148e-001	-1.511029e-001
1062784063	-1.084948e-001	-9.620183e+001	-7.719510e+001	-5.211319e+001	-7.698646e+001	-5.112155e+001	-3.971739e-001	-4.800145e+001
1075283875	-1.083457e-001	-9.734618e+001	-7.691353e+001	-5.313236e+001	-7.691414e+001	-5.321574e+001	-3.619004e-001	-9.457700e+001
1087783688	-1.078037e-001	-9.848449e+001	-7.630883e+001	-5.345588e+001	-7.654426e+001	-5.449359e+001	-3.533827e-001	-1.401881e+002
1100283500	-1.077541e-001	-9.963431e+001	-7.602607e+001	-5.563652e+001	-7.604506e+001	-5.448088e+001	-3.798409e-001	1.742066e+002
1112783313	-1.099586e-001	-1.007909e+002	-7.525543e+001	-5.744101e+001	-7.547728e+001	-5.648809e+001	-4.334142e-001	1.268577e+002
1125283125	-1.110629e-001	-1.019362e+002	-7.511270e+001	-5.898747e+001	-7.503904e+001	-6.000744e+001	-4.681694e-001	7.802094e+001
1137782938	-1.106055e-001	-1.030724e+002	-7.484331e+001	-6.165583e+001	-7.469168e+001	-6.196221e+001	-4.612408e-001	2.888059e+001
1150282750	-1.089766e-001	-1.042032e+002	-7.425766e+001	-6.432191e+001	-7.432577e+001	-6.410777e+001	-4.262740e-001	-1.921943e+001
1162782563	-1.141613e-001	-1.053579e+002	-7.385782e+001	-6.561201e+001	-7.382345e+001	-6.638720e+001	-3.663946e-001	-6.560939e+001
1175282375	-1.174267e-001	-1.065085e+002	-7.332605e+001	-6.779900e+001	-7.345834e+001	-6.703785e+001	-3.402180e-001	-1.108300e+002
1187782188	-1.191951e-001	-1.076584e+002	-7.282513e+001	-6.804676e+001	-7.273554e+001	-6.741216e+001	-3.587270e-001	-1.560449e+002
1200282000	-1.201028e-001	-1.088132e+002	-7.206044e+001	-6.995281e+001	-7.210621e+001	-7.013473e+001	-4.075776e-001	1.575645e+002
1212781813	-1.208285e-001	-1.099263e+002	-7.131578e+001	-7.151566e+001	-7.132967e+001	-7.195041e+001	-4.538180e-001	1.092288e+002
1225281625	-1.210416e-001	-1.110502e+002	-7.065776e+001	-7.477143e+001	-7.071281e+001	-7.467304e+001	-4.724154e-001	6.041219e+001
1237781438	-1.217060e-001	-1.121907e+002	-7.007393e+001	-7.763419e+001	-7.014055e+001	-7.724259e+001	-4.588565e-001	1.218017e+001
1250281250	-1.240284e-001	-1.133487e+002	-6.950312e+001	-8.089002e+001	-6.946856e+001	-7.991110e+001	-4.362908e-001	-3.476465e+001
1262781063	-1.181722e-001	-1.144581e+002	-6.878583e+001	-8.165162e+001	-6.867453e+001	-8.095883e+001	-3.931696e-001	-8.088773e+001
1275280875	-1.152829e-001	-1.155842e+002	-6.783937e+001	-8.344198e+001	-6.775479e+001	-8.303240e+001	-3.733944e-001	-1.263298e+002
1287780688	-1.170854e-001	-1.167234e+002	-6.669664e+001	-8.464043e+001	-6.658132e+001	-8.494253e+001	-3.877038e-001	-1.720597e+002
1300280500	-1.247146e-001	-1.178721e+002	-6.524820e+001	-8.810625e+001	-6.534037e+001	-8.830682e+001	-4.386355e-001	1.409955e+002
1312780313	-1.145858e-001	-1.190365e+002	-6.389760e+001	-9.259612e+001	-6.394383e+001	-9.233990e+001	-5.002153e-001	9.202483e+001
1325280125	-1.108237e-001	-1.201981e+002	-6.227156e+001	-9.738387e+001	-6.237788e+001	-9.756687e+001	-5.247038e-001	4.303371e+001
1337779938	-1.145724e-001	-1.213450e+002	-6.052325e+001	-1.036702e+002	-6.051124e+001	-1.031232e+002	-4.889335e-001	-4.650979e+000
1350279750	-1.267363e-001	-1.224663e+002	-5.824048e+001	-1.109715e+002	-5.818715e+001	-1.108630e+002	-4.002271e-001	-5.066788e+001
1362779563	-1.274580e-001	-1.237145e+002	-5.511636e+001	-1.242927e+002	-5.506203e+001	-1.243517e+002	-3.873228e-001	-9.553900e+001
1375279375	-1.398008e-001	-1.248645e+002	-5.166643e+001	-1.534128e+002	-5.162449e+001	-1.535408e+002	-3.982492e-001	-1.407347e+002
1387779188	-1.425109e-001	-1.258368e+002	-5.146038e+001	1.603632e+002	-5.145288e+001	1.602317e+002	-4.304862e-001	1.727780e+002
1400279000	-1.311641e-001	-1.268278e+002	-5.473079e+001	1.291785e+002	-5.472219e+001	1.291090e+002	-4.726464e-001	1.245500e+002
1412778813	-1.436005e-001	-1.280798e+002	-5.796979e+001	1.133101e+002	-5.790771e+001	1.133885e+002	-5.095878e-001	7.553488e+001
1425278625	-1.507740e-001	-1.292514e+002	-6.061490e+001	1.046295e+002	-6.057954e+001	1.047466e+002	-4.988864e-001	2.716477e+001
1437778438	-1.474300e-001	-1.303584e+002	-6.277527e+001	9.975775e+001	-6.275178e+001	9.932894e+001	-4.527304e-001	-1.969768e+001
1450278250	-1.323578e-001	-1.314327e+002	-6.451482e+001	9.602205e+001	-6.444378e+001	9.578822e+001	-4.059111e-001	-6.522280e+001
1462778063	-1.501957e-001	-1.325466e+002	-6.595365e+001	9.345592e+001	-6.587256e+001	9.335719e+001	-3.690824e-001	-1.101514e+002
1475277875	-1.556193e-001	-1.336741e+002	-6.708021e+001	9.099625e+001	-6.706779e+001	9.031790e+001	-3.799826e-001	-1.558864e+002
1487777688	-1.511893e-001	-1.348313e+002	-6.799146e+001	8.846630e+001	-6.802644e+001	8.792285e+001	-4.281412e-001	1.567809e+002
1500277500	-1.406641e-001	-1.360243e+002	-6.898315e+001	8.454369e+001	-6.902223e+001	8.502667e+001	-4.836475e-001	1.080200e+002
1512777313	-1.466745e-001	-1.371032e+002	-6.994359e+001	8.250922e+001	-6.988032e+001	8.197223e+001	-5.062559e-001	5.923080e+001
1525277125	-1.495031e-001	-1.382286e+002	-7.091194e+001	8.038851e+001	-7.090309e+001	7.911256e+001	-4.813273e-001	1.152951e+001
1537776938	-1.506014e-001	-1.393905e+002	-7.181782e+001	7.840619e+001	-7.192331e+001	7.729220e+001	-4.328987e-001	-3.469059e+001
1550276750	-1.511251e-001	-1.405813e+002	-7.252120e+001	7.632510e+001	-7.256800e+001	7.724639e+001	-3.930205e-001	-7.994569e+001
1562776563	-1.513265e-001	-1.417678e+002	-7.327325e+001	7.501952e+001	-7.321306e+001	7.609123e+001	-3.795414e-001	-1.252579e+002
1575276375	-1.533155e-001	-1.429076e+002	-7.366168e+001	7.467305e+001	-7.369157e+001	7.488771e+001	-3.997294e-001	-1.716131e+002
1587776188	-1.554488e-001	-1.440653e+002	-7.420530e+001	7.185355e+001	-7.420190e+001	7.213059e+001	-4.505294e-001	1.405066e+002
1600276000	-1.576650e-001	-1.452353e+002	-7.479955e+001	6.804617e+001	-7.480524e+001	6.877550e+001	-4.998673e-001	9.157434e+001
1612775813	-1.587580e-001	-1.463742e+002	-7.542232e+001	6.596034e+001	-7.535651e+001	6.711662e+001	-5.037523e-001	4.286817e+001
1625275625	-1.601949e-001	-1.475230e+002	-7.615451e+001	6.449730e+001	-7.624304e+001	6.482603e+001	-4.652014e-001	-4.092985e+000
1637775438	-1.619310e-001	-1.486796e+002	-7.668699e+001	6.336625e+001	-7.679828e+001	6.393464e+001	-4.142056e-001	-4.938329e+001
1650275250	-1.637359e-001	-1.498415e+002	-7.705022e+001	6.294508e+001	-7.701032e+001	6.422017e+001	-3.803505e-001	-9.410752e+001
1662775063	-1.654979e-001	-1.509883e+002	-7.746347e+001	6.398789e+001	-7.756533e+001	6.201296e+001	-3.797815e-001	-1.396422e+002
1675274875	-1.674193e-001	-1.521436e+002	-7.761668e+001	5.913275e+001	-7.765437e+001	6.064163e+001	-4.203736e-001	1.731081e+002
1687774688	-1.693860e-001	-1.533041e+002	-7.803182e+001	5.682218e+001	-7.813809e+001	5.763056e+001	-4.776675e-001	1.242842e+002
1700274500	-1.717541e-001	-1.544700e+002	-7.835226e+001	5.498228e+001	-7.870309e+001	5.450383e+001	-5.123482e-001	7.516562e+001
1712774313	-1.727508e-001	-1.556321e+002	-7.902398e+001	5.177853e+001	-7.930165e+001	5.277680e+001	-4.983753e-001	2.744870e+001
1725274125	-1.739547e-001	-1.567999e+002	-8.004694e+001	5.094841e+001	-7.979607e+001	5.149704e+001	-4.568871e-001	-1.877134e+001
1737773938	-1.757924e-001	-1.579692e+002	-8.025846e+001	5.225342e+001	-8.044736e+001	5.029628e+001	-4.136269e-001	-6.407714e+001
1750273750	-1.782872e-001	-1.591402e+002	-8.086318e+001	5.069546e+001	-8.061191e+001	4.869250e+001	-3.917577e-001	-1.095014e+002
1762773563	-1.798477e-001	-1.603057e+002	-8.086246e+001	4.956282e+001	-8.100457e+001	5.180070e+001	-4.009086e-001	-1.559555e+002
1775273375	-1.818056e-001	-1.614724e+002	-8.101419e+001	4.822022e+001	-8.121584e+001	4.764063e+001	-4.416498e-001	1.561828e+002
1787773188	-1.839471e-001	-1.626382e+002	-8.164071e+001	4.768718e+001	-8.161727e+001	4.543113e+001	-4.912263e-001	1.073774e+002
1800273000	-1.865505e-001	-1.638020e+002	-8.186401e+001	4.058765e+001	-8.188947e+001	4.429905e+001	-5.157446e-001	5.875559e+001
1812772813	-1.870650e-001	-1.649651e+002	-8.224233e+001	4.089411e+001	-8.278477e+001	3.923056e+001	-4.710520e-001	1.172400e+001
1825272625	-1.877082e-001	-1.661262e+002	-8.266125e+001	3.963617e+001	-8.290817e+001	3.843291e+001	-4.129776e-001	-3.407253e+001
1837772438	-1.887198e-001	-1.672877e+002	-8.379834e+001	3.846151e+001	-8.317874e+001	4.003953e+001	-3.798166e-001	-7.941352e+001
1850272250	-1.902903e-001	-1.684462e+002	-8.380706e+001	3.826763e+001	-8.408144e+001	4.111196e+001	-3.916127e-001	-1.252702e+002
1862772063	-1.901838e-001	-1.696100e+002	-8.449479e+001	3.999248e+001	-8.381379e+001	3.585220e+001	-4.315522e-001	-1.722992e+002
1875271875	-1.903417e-001	-1.707697e+002	-8.457141e+001	3.405762e+001	-8.408136e+001	3.565384e+001	-4.887318e-001	1.394178e+002
1887771688	-1.911318e-001	-1.719256e+002	-8.433542e+001	3.210917e+001	-8.489154e+001	3.078955e+001	-5.266796e-001	9.056880e+001
