!Agilent Technologies,E5071C,MY46215201,A.10.06
!Date: Mon Jul 01 14:53:39 2019
!Data & Calibration Information:
!Freq	S11:SOLT2(ON)	S21:SOLT2(ON)	S12:SOLT2(ON)	S22:SOLT2(ON)
!PortZ  Port1:50+j0    Port2:50+j0
!Above PortZ is port z conversion or system Z0 setting when saving the data.
!When reading, reference impedance value at option line is always used.
# Hz S dB R 50
300000	-4.508480e-002	7.572677e-001	-7.656973e+001	-2.768028e+001	-7.164299e+001	-6.048667e+001	-2.083962e-002	6.488488e-001
12799813	-2.548657e-002	-1.277531e+000	-7.158218e+001	9.478872e+001	-7.466585e+001	1.063884e+002	1.221017e-001	-4.715792e+001
25299625	-2.798526e-002	-2.384100e+000	-6.650145e+001	8.615810e+001	-6.820730e+001	1.002418e+002	1.380685e-001	-9.425982e+001
37799438	-2.146697e-002	-3.498175e+000	-6.373673e+001	7.430470e+001	-6.306378e+001	9.042941e+001	6.987474e-002	-1.412288e+002
50299250	-1.977273e-002	-4.591657e+000	-6.257789e+001	7.814955e+001	-6.059033e+001	8.800015e+001	-2.913279e-002	1.718252e+002
62799063	-1.610061e-002	-5.668290e+000	-6.077999e+001	8.335700e+001	-5.894808e+001	8.548528e+001	-9.317043e-002	1.247830e+002
75298875	-1.261340e-002	-6.765334e+000	-5.862761e+001	8.362428e+001	-5.787082e+001	8.062949e+001	-1.050095e-001	7.760351e+001
87798688	-3.737849e-003	-7.859350e+000	-5.688431e+001	8.041751e+001	-5.630985e+001	7.653387e+001	-6.160757e-002	3.035559e+001
100298500	-6.960358e-003	-8.998535e+000	-5.560406e+001	7.485308e+001	-5.554876e+001	7.657910e+001	6.234937e-003	-1.699613e+001
112798313	-1.430428e-003	-1.010740e+001	-5.458620e+001	7.532948e+001	-5.474074e+001	7.377694e+001	3.175079e-002	-6.430671e+001
125298125	-1.333514e-004	-1.123564e+001	-5.387582e+001	7.434098e+001	-5.385797e+001	7.318801e+001	2.849411e-002	-1.113135e+002
137797938	8.072015e-004	-1.238211e+001	-5.295480e+001	7.161501e+001	-5.305092e+001	7.147248e+001	-4.985265e-003	-1.580236e+002
150297750	-2.918354e-003	-1.350369e+001	-5.226702e+001	6.943731e+001	-5.225465e+001	7.080173e+001	-5.045901e-002	1.553008e+002
162797563	-5.336504e-003	-1.466758e+001	-5.152846e+001	6.908166e+001	-5.140248e+001	6.871598e+001	-7.655905e-002	1.084179e+002
175297375	-3.871176e-003	-1.581488e+001	-5.086004e+001	6.733576e+001	-5.088785e+001	6.648372e+001	-6.969555e-002	6.110557e+001
187797188	-4.298201e-003	-1.696329e+001	-5.028273e+001	6.566642e+001	-5.020157e+001	6.556213e+001	-3.627506e-002	1.351426e+001
200297000	-6.313388e-003	-1.807237e+001	-4.965573e+001	6.437228e+001	-4.974586e+001	6.417665e+001	-4.604517e-003	-3.404934e+001
212796813	-8.676056e-003	-1.924352e+001	-4.919939e+001	6.191858e+001	-4.912876e+001	6.174850e+001	7.070510e-003	-8.133756e+001
225296625	-8.840423e-003	-2.034170e+001	-4.872540e+001	6.008507e+001	-4.876734e+001	6.012095e+001	-7.426239e-003	-1.282319e+002
237796438	-1.210362e-002	-2.151513e+001	-4.830816e+001	5.905015e+001	-4.830928e+001	5.804373e+001	-4.195732e-002	-1.747647e+002
250296250	-1.462261e-002	-2.264816e+001	-4.782061e+001	5.793688e+001	-4.781687e+001	5.666261e+001	-7.645364e-002	1.386649e+002
262796063	-1.607242e-002	-2.378065e+001	-4.737173e+001	5.530162e+001	-4.740366e+001	5.634439e+001	-9.167776e-002	9.176193e+001
275295875	-1.822613e-002	-2.493693e+001	-4.700054e+001	5.442374e+001	-4.706724e+001	5.391756e+001	-8.181460e-002	4.434456e+001
287795688	-2.133735e-002	-2.607558e+001	-4.671469e+001	5.199970e+001	-4.665007e+001	5.241223e+001	-5.422911e-002	-3.397863e+000
300295500	-2.314042e-002	-2.722068e+001	-4.629961e+001	5.021647e+001	-4.622342e+001	5.033142e+001	-3.134088e-002	-5.103305e+001
312795313	-2.549457e-002	-2.831674e+001	-4.588589e+001	4.849978e+001	-4.597946e+001	4.868161e+001	-1.799864e-002	-9.812959e+001
325295125	-2.761963e-002	-2.944749e+001	-4.565890e+001	4.686927e+001	-4.578553e+001	4.742980e+001	-3.608487e-002	-1.446155e+002
337794938	-2.845359e-002	-3.065226e+001	-4.538396e+001	4.581650e+001	-4.548202e+001	4.595244e+001	-7.305626e-002	1.691452e+002
350294750	-2.896067e-002	-3.178016e+001	-4.505073e+001	4.477807e+001	-4.513393e+001	4.482435e+001	-1.090647e-001	1.224829e+002
362794563	-3.012989e-002	-3.294628e+001	-4.470923e+001	4.367479e+001	-4.481099e+001	4.306252e+001	-1.286363e-001	7.520772e+001
375294375	-3.231442e-002	-3.413036e+001	-4.438582e+001	4.138560e+001	-4.445180e+001	4.117496e+001	-1.239799e-001	2.735126e+001
387794188	-3.246554e-002	-3.520463e+001	-4.413692e+001	3.955657e+001	-4.414832e+001	3.906197e+001	-9.234119e-002	-2.065732e+001
400294000	-3.832520e-002	-3.634637e+001	-4.397294e+001	3.717656e+001	-4.388200e+001	3.735025e+001	-6.146147e-002	-6.809051e+001
412793813	-4.396029e-002	-3.746600e+001	-4.373005e+001	3.591979e+001	-4.370648e+001	3.608394e+001	-5.721650e-002	-1.146326e+002
425293625	-4.460090e-002	-3.859424e+001	-4.351742e+001	3.508578e+001	-4.342063e+001	3.458318e+001	-8.420106e-002	-1.607841e+002
437793438	-4.464735e-002	-3.971411e+001	-4.320814e+001	3.379838e+001	-4.315904e+001	3.343822e+001	-1.270075e-001	1.527546e+002
450293250	-4.043725e-002	-4.083458e+001	-4.291675e+001	3.181928e+001	-4.290288e+001	3.159130e+001	-1.622717e-001	1.054964e+002
462793063	-4.644926e-002	-4.199390e+001	-4.263853e+001	2.982283e+001	-4.260828e+001	2.976578e+001	-1.699681e-001	5.752520e+001
475292875	-4.831819e-002	-4.314746e+001	-4.240761e+001	2.711169e+001	-4.244916e+001	2.748453e+001	-1.473039e-001	9.331879e+000
487792688	-4.627840e-002	-4.428444e+001	-4.228114e+001	2.598962e+001	-4.227851e+001	2.571935e+001	-1.170932e-001	-3.839319e+001
500292500	-4.472221e-002	-4.542426e+001	-4.216262e+001	2.448149e+001	-4.215172e+001	2.431297e+001	-1.010037e-001	-8.526129e+001
512792313	-4.336005e-002	-4.652823e+001	-4.197396e+001	2.316229e+001	-4.202005e+001	2.256060e+001	-1.198492e-001	-1.316010e+002
525292125	-4.335717e-002	-4.767919e+001	-4.179998e+001	2.149922e+001	-4.180973e+001	2.132114e+001	-1.525496e-001	-1.780599e+002
537791938	-4.307755e-002	-4.881132e+001	-4.154432e+001	1.986668e+001	-4.160106e+001	1.999279e+001	-1.851432e-001	1.349388e+002
550291750	-4.493442e-002	-4.996007e+001	-4.133850e+001	1.785675e+001	-4.136650e+001	1.803304e+001	-2.007184e-001	8.732498e+001
562791563	-4.258920e-002	-5.109531e+001	-4.122342e+001	1.583334e+001	-4.116980e+001	1.615307e+001	-1.969011e-001	3.939081e+001
575291375	-4.172603e-002	-5.223279e+001	-4.106248e+001	1.395262e+001	-4.109158e+001	1.416752e+001	-1.778494e-001	-8.423172e+000
587791188	-4.133941e-002	-5.337055e+001	-4.094488e+001	1.253129e+001	-4.090519e+001	1.262602e+001	-1.570242e-001	-5.570980e+001
600291000	-4.361891e-002	-5.449577e+001	-4.079591e+001	1.087544e+001	-4.077560e+001	1.090174e+001	-1.457479e-001	-1.023934e+002
612790813	-4.257533e-002	-5.560854e+001	-4.067953e+001	9.247375e+000	-4.062458e+001	9.699173e+000	-1.673749e-001	-1.487788e+002
625290625	-4.316110e-002	-5.673972e+001	-4.050672e+001	7.879088e+000	-4.046643e+001	8.309669e+000	-2.049067e-001	1.646170e+002
637790438	-4.285083e-002	-5.788635e+001	-4.042535e+001	6.209990e+000	-4.027727e+001	6.510291e+000	-2.429420e-001	1.174751e+002
650290250	-4.362631e-002	-5.902691e+001	-4.021865e+001	5.018103e+000	-4.011383e+001	4.768083e+000	-2.631310e-001	6.977699e+001
662790063	-4.391762e-002	-6.016930e+001	-4.001497e+001	3.274239e+000	-4.000907e+001	2.793580e+000	-2.554875e-001	2.184267e+001
675289875	-4.520642e-002	-6.128824e+001	-3.990975e+001	1.234742e+000	-3.990239e+001	7.188376e-001	-2.303089e-001	-2.588549e+001
687789688	-4.742741e-002	-6.242408e+001	-3.987934e+001	-6.757074e-001	-3.981058e+001	-7.208976e-001	-2.059069e-001	-7.303728e+001
700289500	-4.873440e-002	-6.358377e+001	-3.977263e+001	-2.054121e+000	-3.974506e+001	-2.160386e+000	-2.003244e-001	-1.195793e+002
712789313	-5.070374e-002	-6.472882e+001	-3.966837e+001	-3.018442e+000	-3.968556e+001	-3.518555e+000	-2.252802e-001	-1.658136e+002
725289125	-5.183132e-002	-6.585577e+001	-3.946016e+001	-4.448770e+000	-3.948055e+001	-4.831917e+000	-2.704634e-001	1.475787e+002
737788938	-5.654780e-002	-6.700314e+001	-3.925982e+001	-6.413502e+000	-3.933142e+001	-6.536868e+000	-3.132068e-001	1.002197e+002
750288750	-6.099593e-002	-6.815559e+001	-3.908367e+001	-9.002919e+000	-3.918281e+001	-8.768968e+000	-3.313249e-001	5.220215e+001
762788563	-6.288717e-002	-6.929515e+001	-3.906119e+001	-1.112493e+001	-3.909381e+001	-1.051130e+001	-3.155549e-001	4.021248e+000
775288375	-6.554074e-002	-7.042219e+001	-3.906977e+001	-1.297382e+001	-3.902376e+001	-1.256739e+001	-2.807380e-001	-4.367077e+001
787788188	-6.987549e-002	-7.155970e+001	-3.905429e+001	-1.418610e+001	-3.900389e+001	-1.393330e+001	-2.554089e-001	-9.050064e+001
800288000	-7.549791e-002	-7.268251e+001	-3.895217e+001	-1.525803e+001	-3.895639e+001	-1.527142e+001	-2.605874e-001	-1.366843e+002
812787813	-7.973606e-002	-7.381451e+001	-3.880977e+001	-1.655149e+001	-3.881489e+001	-1.646299e+001	-2.942187e-001	1.771478e+002
825287625	-8.414096e-002	-7.495771e+001	-3.865760e+001	-1.818659e+001	-3.861928e+001	-1.800231e+001	-3.396758e-001	1.301669e+002
837787438	-8.875112e-002	-7.610369e+001	-3.850540e+001	-2.051257e+001	-3.847447e+001	-1.987962e+001	-3.734940e-001	8.217558e+001
850287250	-9.403201e-002	-7.724963e+001	-3.847486e+001	-2.234378e+001	-3.842510e+001	-2.244550e+001	-3.781920e-001	3.368210e+001
862787063	-9.882273e-002	-7.838419e+001	-3.843458e+001	-2.413802e+001	-3.837475e+001	-2.433501e+001	-3.514811e-001	-1.443249e+001
875286875	-1.033919e-001	-7.951668e+001	-3.840414e+001	-2.579544e+001	-3.836841e+001	-2.597483e+001	-3.200698e-001	-6.157478e+001
887786688	-1.082615e-001	-8.064208e+001	-3.839488e+001	-2.732360e+001	-3.837069e+001	-2.729334e+001	-3.072627e-001	-1.077676e+002
900286500	-1.129460e-001	-8.177955e+001	-3.835884e+001	-2.850077e+001	-3.831344e+001	-2.820422e+001	-3.222460e-001	-1.536432e+002
912786313	-1.151750e-001	-8.289406e+001	-3.823761e+001	-2.983385e+001	-3.819755e+001	-2.979547e+001	-3.581754e-001	1.597477e+002
925286125	-1.176138e-001	-8.402253e+001	-3.807240e+001	-3.157529e+001	-3.809475e+001	-3.151361e+001	-3.922192e-001	1.121412e+002
937785938	-1.208894e-001	-8.515543e+001	-3.796929e+001	-3.336650e+001	-3.800478e+001	-3.346046e+001	-4.074007e-001	6.386230e+001
950285750	-1.223211e-001	-8.628159e+001	-3.795832e+001	-3.544930e+001	-3.798301e+001	-3.558962e+001	-3.948758e-001	1.565147e+001
962785563	-1.231690e-001	-8.744465e+001	-3.796446e+001	-3.746778e+001	-3.801421e+001	-3.708579e+001	-3.678683e-001	-3.179597e+001
975285375	-1.251317e-001	-8.860579e+001	-3.796792e+001	-3.880314e+001	-3.799509e+001	-3.859064e+001	-3.454391e-001	-7.832984e+001
987785188	-1.263763e-001	-8.977573e+001	-3.793235e+001	-4.003146e+001	-3.791673e+001	-3.970932e+001	-3.417571e-001	-1.243631e+002
1000285000	-1.291629e-001	-9.094113e+001	-3.784773e+001	-4.115921e+001	-3.782822e+001	-4.112600e+001	-3.630172e-001	-1.705206e+002
1012784813	-1.308521e-001	-9.208944e+001	-3.774124e+001	-4.271347e+001	-3.769366e+001	-4.253173e+001	-4.001986e-001	1.429216e+002
1025284625	-1.320422e-001	-9.323269e+001	-3.760370e+001	-4.434830e+001	-3.759189e+001	-4.448818e+001	-4.418881e-001	9.540818e+001
1037784438	-1.346875e-001	-9.437303e+001	-3.749703e+001	-4.674704e+001	-3.745696e+001	-4.662452e+001	-4.637366e-001	4.699158e+001
1050284250	-1.364176e-001	-9.550869e+001	-3.751957e+001	-4.910831e+001	-3.747380e+001	-4.892036e+001	-4.522222e-001	-1.626806e+000
1062784063	-1.376019e-001	-9.667984e+001	-3.758752e+001	-5.077780e+001	-3.749847e+001	-5.104095e+001	-4.128603e-001	-4.945509e+001
1075283875	-1.385617e-001	-9.783937e+001	-3.764819e+001	-5.203995e+001	-3.759669e+001	-5.238671e+001	-3.781665e-001	-9.600879e+001
1087783688	-1.387230e-001	-9.899589e+001	-3.763495e+001	-5.300467e+001	-3.759604e+001	-5.349005e+001	-3.704704e-001	-1.416218e+002
1100283500	-1.397760e-001	-1.001601e+002	-3.754921e+001	-5.392731e+001	-3.753064e+001	-5.414665e+001	-3.984306e-001	1.727451e+002
1112783313	-1.420807e-001	-1.013349e+002	-3.740793e+001	-5.605015e+001	-3.740034e+001	-5.583363e+001	-4.526284e-001	1.253314e+002
1125283125	-1.442920e-001	-1.024912e+002	-3.731714e+001	-5.828770e+001	-3.732928e+001	-5.817828e+001	-4.857895e-001	7.646186e+001
1137782938	-1.448030e-001	-1.036453e+002	-3.734760e+001	-6.087616e+001	-3.736877e+001	-6.059570e+001	-4.774864e-001	2.732533e+001
1150282750	-1.431056e-001	-1.047877e+002	-3.743459e+001	-6.258990e+001	-3.749278e+001	-6.243118e+001	-4.407230e-001	-2.072824e+001
1162782563	-1.492794e-001	-1.059591e+002	-3.751332e+001	-6.372232e+001	-3.758370e+001	-6.366876e+001	-3.807053e-001	-6.707206e+001
1175282375	-1.530879e-001	-1.071234e+002	-3.757041e+001	-6.465708e+001	-3.759656e+001	-6.455677e+001	-3.558409e-001	-1.122751e+002
1187782188	-1.561456e-001	-1.082903e+002	-3.749815e+001	-6.559809e+001	-3.751620e+001	-6.554282e+001	-3.745079e-001	-1.575196e+002
1200282000	-1.579679e-001	-1.094555e+002	-3.736616e+001	-6.667849e+001	-3.732277e+001	-6.687482e+001	-4.250540e-001	1.560395e+002
1212781813	-1.594777e-001	-1.105830e+002	-3.722051e+001	-6.886462e+001	-3.724138e+001	-6.907613e+001	-4.712709e-001	1.076653e+002
1225281625	-1.595165e-001	-1.117215e+002	-3.718543e+001	-7.160851e+001	-3.722152e+001	-7.126734e+001	-4.888371e-001	5.884411e+001
1237781438	-1.607353e-001	-1.128777e+002	-3.726073e+001	-7.379261e+001	-3.728501e+001	-7.339407e+001	-4.732024e-001	1.064747e+001
1250281250	-1.641496e-001	-1.140548e+002	-3.744865e+001	-7.570003e+001	-3.742402e+001	-7.483983e+001	-4.503055e-001	-3.624710e+001
1262781063	-1.595583e-001	-1.151687e+002	-3.759295e+001	-7.652403e+001	-3.746051e+001	-7.592311e+001	-4.070611e-001	-8.233383e+001
1275280875	-1.562737e-001	-1.163111e+002	-3.759542e+001	-7.733710e+001	-3.748792e+001	-7.700524e+001	-3.874785e-001	-1.277721e+002
1287780688	-1.593494e-001	-1.174629e+002	-3.750881e+001	-7.773761e+001	-3.743500e+001	-7.795297e+001	-4.035734e-001	-1.735242e+002
1300280500	-1.678830e-001	-1.186250e+002	-3.729074e+001	-7.948549e+001	-3.730486e+001	-7.980766e+001	-4.553043e-001	1.394922e+002
1312780313	-1.577970e-001	-1.197969e+002	-3.723115e+001	-8.216498e+001	-3.726467e+001	-8.215978e+001	-5.155364e-001	9.050241e+001
1325280125	-1.538951e-001	-1.209712e+002	-3.730005e+001	-8.474467e+001	-3.734362e+001	-8.449835e+001	-5.376369e-001	4.154690e+001
1337779938	-1.578984e-001	-1.221198e+002	-3.753558e+001	-8.651779e+001	-3.752856e+001	-8.614563e+001	-4.992256e-001	-6.070291e+000
1350279750	-1.680098e-001	-1.232433e+002	-3.766657e+001	-8.720926e+001	-3.764328e+001	-8.704845e+001	-4.086829e-001	-5.201593e+001
1362779563	-1.646412e-001	-1.244876e+002	-3.772095e+001	-8.771040e+001	-3.766172e+001	-8.780203e+001	-3.912612e-001	-9.685036e+001
1375279375	-1.651872e-001	-1.256753e+002	-3.762414e+001	-8.828366e+001	-3.755918e+001	-8.841558e+001	-3.925530e-001	-1.420845e+002
1387779188	-1.677225e-001	-1.267933e+002	-3.746231e+001	-8.997198e+001	-3.744612e+001	-9.018508e+001	-4.247411e-001	1.712729e+002
1400279000	-1.702963e-001	-1.278215e+002	-3.735176e+001	-9.221896e+001	-3.734535e+001	-9.207655e+001	-4.784136e-001	1.229935e+002
1412778813	-1.883231e-001	-1.290744e+002	-3.743934e+001	-9.464143e+001	-3.740116e+001	-9.450892e+001	-5.189352e-001	7.400408e+001
1425278625	-1.981894e-001	-1.302459e+002	-3.760728e+001	-9.677727e+001	-3.749499e+001	-9.659314e+001	-5.081663e-001	2.570464e+001
1437778438	-1.966528e-001	-1.313578e+002	-3.773349e+001	-9.799237e+001	-3.769218e+001	-9.775019e+001	-4.610063e-001	-2.108317e+001
1450278250	-1.830453e-001	-1.324398e+002	-3.782391e+001	-9.859311e+001	-3.776421e+001	-9.878751e+001	-4.151240e-001	-6.655672e+001
1462778063	-2.022994e-001	-1.335638e+002	-3.783033e+001	-9.934767e+001	-3.776536e+001	-9.964313e+001	-3.804308e-001	-1.114653e+002
1475277875	-2.084333e-001	-1.346986e+002	-3.769115e+001	-1.006211e+002	-3.768604e+001	-1.006778e+002	-3.927063e-001	-1.572159e+002
1487777688	-2.057178e-001	-1.358722e+002	-3.763080e+001	-1.021499e+002	-3.759506e+001	-1.025254e+002	-4.426957e-001	1.554207e+002
1500277500	-1.955555e-001	-1.370746e+002	-3.757274e+001	-1.045888e+002	-3.759581e+001	-1.048295e+002	-4.973432e-001	1.066565e+002
1512777313	-2.017087e-001	-1.381682e+002	-3.770392e+001	-1.066423e+002	-3.768049e+001	-1.071235e+002	-5.185328e-001	5.790739e+001
1525277125	-2.058697e-001	-1.393074e+002	-3.779335e+001	-1.085854e+002	-3.786867e+001	-1.088439e+002	-4.907873e-001	1.026434e+001
1537776938	-2.067481e-001	-1.404767e+002	-3.797225e+001	-1.099741e+002	-3.800609e+001	-1.098317e+002	-4.423826e-001	-3.589849e+001
1550276750	-2.078591e-001	-1.416793e+002	-3.806312e+001	-1.108492e+002	-3.811888e+001	-1.104580e+002	-4.020753e-001	-8.111228e+001
1562776563	-2.089877e-001	-1.428807e+002	-3.805010e+001	-1.116279e+002	-3.807169e+001	-1.112671e+002	-3.904944e-001	-1.264164e+002
1575276375	-2.119320e-001	-1.440328e+002	-3.803534e+001	-1.127134e+002	-3.799796e+001	-1.124711e+002	-4.125428e-001	-1.727850e+002
1587776188	-2.150300e-001	-1.452028e+002	-3.791168e+001	-1.147090e+002	-3.792124e+001	-1.146547e+002	-4.635878e-001	1.393286e+002
1600276000	-2.171024e-001	-1.463848e+002	-3.793192e+001	-1.172575e+002	-3.793462e+001	-1.172806e+002	-5.127215e-001	9.041471e+001
1612775813	-2.198925e-001	-1.475369e+002	-3.813960e+001	-1.196525e+002	-3.813398e+001	-1.192885e+002	-5.151036e-001	4.176218e+001
1625275625	-2.220578e-001	-1.486915e+002	-3.836389e+001	-1.209318e+002	-3.832691e+001	-1.204133e+002	-4.746024e-001	-5.128720e+000
1637775438	-2.240233e-001	-1.498591e+002	-3.851464e+001	-1.212914e+002	-3.845523e+001	-1.212284e+002	-4.235223e-001	-5.037463e+001
1650275250	-2.266475e-001	-1.510380e+002	-3.852424e+001	-1.216367e+002	-3.845618e+001	-1.219159e+002	-3.905254e-001	-9.507135e+001
1662775063	-2.283346e-001	-1.521903e+002	-3.841988e+001	-1.227506e+002	-3.837823e+001	-1.229423e+002	-3.909439e-001	-1.406106e+002
1675274875	-2.306099e-001	-1.533580e+002	-3.831784e+001	-1.245727e+002	-3.829095e+001	-1.248629e+002	-4.328392e-001	1.721329e+002
1687774688	-2.336582e-001	-1.545288e+002	-3.830328e+001	-1.271669e+002	-3.832969e+001	-1.272786e+002	-4.900908e-001	1.233124e+002
1700274500	-2.364679e-001	-1.556921e+002	-3.849439e+001	-1.295696e+002	-3.848777e+001	-1.296860e+002	-5.241079e-001	7.422742e+001
1712774313	-2.379466e-001	-1.568754e+002	-3.870783e+001	-1.317722e+002	-3.873108e+001	-1.315735e+002	-5.096931e-001	2.657453e+001
1725274125	-2.400608e-001	-1.580436e+002	-3.895701e+001	-1.325290e+002	-3.890850e+001	-1.324436e+002	-4.671619e-001	-1.960266e+001
1737773938	-2.421591e-001	-1.592236e+002	-3.902380e+001	-1.326694e+002	-3.907425e+001	-1.331486e+002	-4.247008e-001	-6.487854e+001
1750273750	-2.455649e-001	-1.604058e+002	-3.900667e+001	-1.336649e+002	-3.909013e+001	-1.339890e+002	-4.021949e-001	-1.102870e+002
1762773563	-2.466327e-001	-1.615741e+002	-3.898382e+001	-1.353656e+002	-3.903939e+001	-1.351110e+002	-4.123869e-001	-1.567356e+002
1775273375	-2.490801e-001	-1.627528e+002	-3.897578e+001	-1.374089e+002	-3.906487e+001	-1.373380e+002	-4.536548e-001	1.554120e+002
1787773188	-2.521369e-001	-1.639236e+002	-3.904034e+001	-1.397071e+002	-3.906123e+001	-1.395508e+002	-5.030173e-001	1.066340e+002
1800273000	-2.559006e-001	-1.650869e+002	-3.920908e+001	-1.420837e+002	-3.918224e+001	-1.418511e+002	-5.274186e-001	5.805568e+001
1812772813	-2.564070e-001	-1.662611e+002	-3.947591e+001	-1.437034e+002	-3.944436e+001	-1.431211e+002	-4.821053e-001	1.107382e+001
1825272625	-2.566407e-001	-1.674231e+002	-3.963675e+001	-1.446077e+002	-3.957430e+001	-1.439584e+002	-4.244385e-001	-3.468258e+001
1837772438	-2.590130e-001	-1.685906e+002	-3.981996e+001	-1.452209e+002	-3.966587e+001	-1.450045e+002	-3.923447e-001	-8.000369e+001
1850272250	-2.614480e-001	-1.697546e+002	-3.982436e+001	-1.459536e+002	-3.966470e+001	-1.462280e+002	-4.042768e-001	-1.258489e+002
1862772063	-2.611212e-001	-1.709156e+002	-3.988953e+001	-1.472137e+002	-3.974577e+001	-1.479362e+002	-4.461397e-001	-1.728793e+002
1875271875	-2.621068e-001	-1.720794e+002	-3.986511e+001	-1.490523e+002	-3.981781e+001	-1.500689e+002	-5.032817e-001	1.388481e+002
