!Agilent Technologies,E5071C,MY46215201,A.10.06
!Date: Mon Nov 18 15:28:43 2019
!Data & Calibration Information:
!Freq	S11:SOLT2(ON)	S21:SOLT2(ON)	S12:SOLT2(ON)	S22:SOLT2(ON)
!PortZ  Port1:50+j0    Port2:50+j0
!Above PortZ is port z conversion or system Z0 setting when saving the data.
!When reading, reference impedance value at option line is always used.
# Hz S dB R 50
300000	2.106441e-003	-1.195921e+000	-7.396534e+001	1.261779e+002	-6.925762e+001	1.258289e+002	-3.917560e-003	-3.139732e-001
12799813	-2.301819e-002	-5.643376e+001	-3.907196e+001	7.269578e+001	-3.909566e+001	7.351335e+001	-2.417340e-003	-1.584393e+001
25299625	-1.070692e-001	-1.106621e+002	-3.391418e+001	5.856677e+001	-3.355278e+001	6.121234e+001	-5.184548e-003	-3.086978e+001
37799438	-2.284164e-001	-1.634296e+002	-3.116546e+001	4.757358e+001	-3.026993e+001	4.618514e+001	-1.524160e-002	-4.501913e+001
50299250	-3.198103e-001	1.452554e+002	-2.922681e+001	3.691984e+001	-2.877228e+001	2.954645e+001	-2.076721e-002	-5.811214e+001
62799063	-3.635709e-001	9.484609e+001	-2.782919e+001	2.480187e+001	-2.854667e+001	1.807905e+001	-3.010122e-002	-6.998731e+001
75298875	-3.633284e-001	4.511932e+001	-2.706342e+001	1.219928e+001	-2.812126e+001	1.238895e+001	-3.117548e-002	-8.070400e+001
87798688	-3.412729e-001	-3.997762e+000	-2.694186e+001	4.405611e-001	-2.729322e+001	3.974225e+000	-4.815644e-002	-9.026371e+001
100298500	-3.290957e-001	-5.214779e+001	-2.719584e+001	-8.851917e+000	-2.709247e+001	-7.475737e+000	-3.953485e-002	-9.880332e+001
112798313	-3.353873e-001	-9.905764e+001	-2.755356e+001	-1.547238e+001	-2.754852e+001	-1.566948e+001	-3.902268e-002	-1.064242e+002
125298125	-3.715640e-001	-1.446364e+002	-2.774203e+001	-2.052981e+001	-2.766726e+001	-2.106233e+001	-4.089072e-002	-1.132852e+002
137797938	-4.282021e-001	1.707864e+002	-2.777981e+001	-2.630340e+001	-2.783365e+001	-2.987441e+001	-4.595215e-002	-1.194108e+002
150297750	-4.736329e-001	1.269206e+002	-2.789943e+001	-3.302236e+001	-2.881430e+001	-3.737098e+001	-5.138881e-002	-1.249613e+002
162797563	-4.862202e-001	8.306248e+001	-2.825425e+001	-4.040034e+001	-2.984692e+001	-3.736615e+001	-5.223072e-002	-1.299875e+002
175297375	-4.794561e-001	3.902176e+001	-2.891200e+001	-4.721125e+001	-2.958517e+001	-3.609429e+001	-5.610444e-002	-1.345789e+002
187797188	-4.684188e-001	-5.101948e+000	-2.977650e+001	-5.217268e+001	-2.901894e+001	-4.332774e+001	-6.146770e-002	-1.387874e+002
200297000	-4.565118e-001	-4.896760e+001	-3.061206e+001	-5.472425e+001	-2.962590e+001	-5.369804e+001	-6.129820e-002	-1.426698e+002
212796813	-4.611242e-001	-9.216671e+001	-3.117669e+001	-5.603639e+001	-3.095627e+001	-5.759301e+001	-6.331119e-002	-1.462456e+002
225296625	-4.859692e-001	-1.344554e+002	-3.151185e+001	-5.785509e+001	-3.149539e+001	-5.777876e+001	-6.712563e-002	-1.496122e+002
237796438	-5.218122e-001	-1.759679e+002	-3.178862e+001	-6.112375e+001	-3.181031e+001	-6.170093e+001	-6.737120e-002	-1.527311e+002
250296250	-5.548338e-001	1.430257e+002	-3.222895e+001	-6.524459e+001	-3.272494e+001	-6.536230e+001	-7.279904e-002	-1.556667e+002
262796063	-5.699417e-001	1.020227e+002	-3.288690e+001	-6.934041e+001	-3.362445e+001	-6.417034e+001	-7.352794e-002	-1.584487e+002
275295875	-5.715960e-001	6.064989e+001	-3.370192e+001	-7.225164e+001	-3.352096e+001	-6.255122e+001	-7.569882e-002	-1.610840e+002
287795688	-5.684164e-001	1.878163e+001	-3.454675e+001	-7.356758e+001	-3.324961e+001	-6.745887e+001	-7.854952e-002	-1.635859e+002
300295500	-5.617211e-001	-2.349167e+001	-3.522505e+001	-7.360337e+001	-3.387147e+001	-7.508811e+001	-7.783963e-002	-1.659571e+002
312795313	-5.632361e-001	-6.570749e+001	-3.565804e+001	-7.409238e+001	-3.512605e+001	-7.874709e+001	-7.818216e-002	-1.682441e+002
325295125	-5.808664e-001	-1.074585e+002	-3.601412e+001	-7.571477e+001	-3.602173e+001	-7.804568e+001	-7.969001e-002	-1.704028e+002
337794938	-6.038891e-001	-1.484456e+002	-3.645873e+001	-7.798577e+001	-3.648270e+001	-7.847886e+001	-8.348650e-002	-1.724713e+002
350294750	-6.296200e-001	1.712344e+002	-3.703521e+001	-8.088669e+001	-3.701957e+001	-8.071217e+001	-8.668795e-002	-1.744831e+002
362794563	-6.520710e-001	1.312000e+002	-3.774826e+001	-8.312951e+001	-3.782543e+001	-8.242631e+001	-8.649289e-002	-1.764180e+002
375294375	-6.647883e-001	9.108842e+001	-3.855363e+001	-8.506035e+001	-3.861428e+001	-8.206488e+001	-8.808707e-002	-1.782967e+002
387794188	-6.682737e-001	5.048673e+001	-3.934340e+001	-8.619105e+001	-3.895088e+001	-8.136586e+001	-9.177779e-002	1.798909e+002
400294000	-6.656631e-001	9.260059e+000	-4.014834e+001	-8.691859e+001	-3.912512e+001	-8.474152e+001	-9.144591e-002	1.781290e+002
412793813	-6.617945e-001	-3.237738e+001	-4.090734e+001	-8.757090e+001	-3.989248e+001	-9.063996e+001	-9.329507e-002	1.764074e+002
425293625	-6.674268e-001	-7.405198e+001	-4.162133e+001	-8.812032e+001	-4.132626e+001	-9.338127e+001	-9.340334e-002	1.747426e+002
437793438	-6.833744e-001	-1.152810e+002	-4.239640e+001	-8.879195e+001	-4.256423e+001	-9.201177e+001	-9.736521e-002	1.731146e+002
450293250	-7.033549e-001	-1.558683e+002	-4.320753e+001	-9.056291e+001	-4.341164e+001	-9.061016e+001	-9.484329e-002	1.715317e+002
462793063	-7.211148e-001	1.642584e+002	-4.429169e+001	-9.255873e+001	-4.419012e+001	-9.254352e+001	-9.819594e-002	1.699784e+002
475292875	-7.370025e-001	1.248046e+002	-4.554010e+001	-9.379388e+001	-4.546928e+001	-9.288394e+001	-1.021639e-001	1.684552e+002
487792688	-7.426593e-001	8.532890e+001	-4.695102e+001	-9.408430e+001	-4.669623e+001	-9.120278e+001	-1.035285e-001	1.669597e+002
500292500	-7.422869e-001	4.538737e+001	-4.852674e+001	-9.254715e+001	-4.771971e+001	-9.157750e+001	-1.054352e-001	1.654794e+002
512792313	-7.425076e-001	4.903175e+000	-5.008006e+001	-9.076417e+001	-4.912623e+001	-9.368806e+001	-1.053441e-001	1.640371e+002
525292125	-7.424694e-001	-3.607780e+001	-5.182326e+001	-8.944767e+001	-5.137233e+001	-9.469981e+001	-1.075017e-001	1.626242e+002
537791938	-7.528326e-001	-7.713792e+001	-5.370267e+001	-8.546918e+001	-5.405648e+001	-9.126420e+001	-1.107763e-001	1.612351e+002
550291750	-7.709957e-001	-1.179757e+002	-5.662459e+001	-8.145713e+001	-5.717866e+001	-8.386738e+001	-1.126223e-001	1.598575e+002
562791563	-7.911321e-001	-1.582590e+002	-6.085076e+001	-6.675532e+001	-6.095418e+001	-6.811872e+001	-1.171734e-001	1.584940e+002
575291375	-8.118748e-001	1.620108e+002	-6.441789e+001	-3.309266e+001	-6.451317e+001	-3.300887e+001	-1.167851e-001	1.571575e+002
587791188	-8.258057e-001	1.225174e+002	-6.274843e+001	1.960701e+001	-6.203603e+001	2.112432e+001	-1.171786e-001	1.558529e+002
600291000	-8.361180e-001	8.284495e+001	-5.837891e+001	4.031162e+001	-5.797010e+001	3.994521e+001	-1.200743e-001	1.545366e+002
612790813	-8.314237e-001	4.267348e+001	-5.502785e+001	4.886807e+001	-5.507230e+001	4.955426e+001	-1.210789e-001	1.532484e+002
625290625	-8.268135e-001	1.878594e+000	-5.260839e+001	5.262905e+001	-5.244182e+001	5.123885e+001	-1.253221e-001	1.519777e+002
637790438	-8.303226e-001	-3.936622e+001	-5.082455e+001	5.379980e+001	-5.061226e+001	5.089055e+001	-1.253476e-001	1.507186e+002
650290250	-8.392782e-001	-8.065726e+001	-4.937660e+001	5.453955e+001	-4.945719e+001	5.053361e+001	-1.256232e-001	1.494673e+002
662790063	-8.560551e-001	-1.215322e+002	-4.809080e+001	5.390543e+001	-4.842160e+001	5.293834e+001	-1.272336e-001	1.482105e+002
675289875	-8.703558e-001	-1.616278e+002	-4.712777e+001	5.332296e+001	-4.727210e+001	5.401347e+001	-1.301764e-001	1.469915e+002
687789688	-8.828373e-001	1.589652e+002	-4.625814e+001	5.299484e+001	-4.628208e+001	5.334998e+001	-1.290881e-001	1.457857e+002
700289500	-8.904960e-001	1.199032e+002	-4.546551e+001	5.284662e+001	-4.544202e+001	5.243276e+001	-1.328750e-001	1.445615e+002
712789313	-8.923313e-001	8.071719e+001	-4.476579e+001	5.283135e+001	-4.460821e+001	5.238068e+001	-1.332376e-001	1.433682e+002
725289125	-8.909295e-001	4.092692e+001	-4.407105e+001	5.239125e+001	-4.387061e+001	5.198192e+001	-1.373421e-001	1.421786e+002
737788938	-8.933615e-001	3.801203e-001	-4.328876e+001	5.264311e+001	-4.322705e+001	4.982774e+001	-1.377872e-001	1.410038e+002
750288750	-8.990952e-001	-4.081580e+001	-4.267447e+001	5.154258e+001	-4.272758e+001	4.838480e+001	-1.401980e-001	1.398250e+002
762788563	-9.098905e-001	-8.217801e+001	-4.202448e+001	5.014767e+001	-4.228162e+001	4.767959e+001	-1.412532e-001	1.386384e+002
775288375	-9.296702e-001	-1.230333e+002	-4.158148e+001	4.807294e+001	-4.188494e+001	4.736484e+001	-1.419437e-001	1.374789e+002
787788188	-9.412036e-001	-1.630587e+002	-4.127381e+001	4.693155e+001	-4.146531e+001	4.681878e+001	-1.439640e-001	1.363199e+002
800288000	-9.460960e-001	1.577715e+002	-4.090728e+001	4.678202e+001	-4.103870e+001	4.651873e+001	-1.443297e-001	1.351548e+002
812787813	-9.491157e-001	1.190702e+002	-4.054654e+001	4.679720e+001	-4.054620e+001	4.511158e+001	-1.480167e-001	1.340341e+002
825287625	-9.441949e-001	8.034500e+001	-4.009648e+001	4.611955e+001	-4.026187e+001	4.410567e+001	-1.472219e-001	1.328898e+002
837787438	-9.458872e-001	4.102377e+001	-3.965393e+001	4.473982e+001	-4.004411e+001	4.419833e+001	-1.479229e-001	1.317550e+002
850287250	-9.501336e-001	7.893025e-001	-3.923487e+001	4.337628e+001	-3.947993e+001	4.479456e+001	-1.493826e-001	1.306342e+002
862787063	-9.698526e-001	-4.037723e+001	-3.898742e+001	4.194278e+001	-3.884939e+001	4.270292e+001	-1.507953e-001	1.295236e+002
875286875	-9.968403e-001	-8.196620e+001	-3.874822e+001	4.056538e+001	-3.863113e+001	3.909868e+001	-1.523486e-001	1.284116e+002
887786688	-1.008992e+000	-1.233468e+002	-3.850042e+001	3.973366e+001	-3.864525e+001	3.791618e+001	-1.516670e-001	1.272896e+002
900286500	-1.026940e+000	-1.639070e+002	-3.825710e+001	3.899603e+001	-3.856505e+001	3.851152e+001	-1.556931e-001	1.261685e+002
912786313	-1.021784e+000	1.564362e+002	-3.799508e+001	3.787764e+001	-3.819678e+001	3.862531e+001	-1.544906e-001	1.250537e+002
925286125	-1.007818e+000	1.174750e+002	-3.778048e+001	3.689248e+001	-3.781760e+001	3.706058e+001	-1.520507e-001	1.239618e+002
937785938	-9.940101e-001	7.867693e+001	-3.757358e+001	3.564763e+001	-3.765481e+001	3.548716e+001	-1.528781e-001	1.228465e+002
950285750	-9.839618e-001	3.943449e+001	-3.737857e+001	3.493501e+001	-3.756357e+001	3.494315e+001	-1.565707e-001	1.217382e+002
962785563	-1.005760e+000	-5.199993e-001	-3.721841e+001	3.403094e+001	-3.734893e+001	3.497489e+001	-1.562168e-001	1.206357e+002
975285375	-1.030390e+000	-4.128782e+001	-3.703145e+001	3.295175e+001	-3.694303e+001	3.448977e+001	-1.589987e-001	1.195346e+002
987785188	-1.054470e+000	-8.248302e+001	-3.686834e+001	3.200456e+001	-3.660797e+001	3.188875e+001	-1.617603e-001	1.184221e+002
1000285000	-1.074840e+000	-1.234209e+002	-3.671821e+001	3.132105e+001	-3.666208e+001	2.938951e+001	-1.658725e-001	1.173401e+002
1012784813	-1.083162e+000	-1.636612e+002	-3.656345e+001	3.074056e+001	-3.675734e+001	2.933383e+001	-1.649581e-001	1.162454e+002
1025284625	-1.074776e+000	1.569616e+002	-3.635516e+001	3.028114e+001	-3.649402e+001	3.027736e+001	-1.705539e-001	1.151719e+002
1037784438	-1.061278e+000	1.182522e+002	-3.616289e+001	2.916454e+001	-3.615084e+001	2.887072e+001	-1.682875e-001	1.140658e+002
1050284250	-1.053513e+000	7.969011e+001	-3.596449e+001	2.770739e+001	-3.618785e+001	2.678289e+001	-1.699407e-001	1.129988e+002
1062784063	-1.054665e+000	4.070309e+001	-3.585786e+001	2.606887e+001	-3.628896e+001	2.782022e+001	-1.700422e-001	1.119164e+002
1075283875	-1.072884e+000	8.168828e-001	-3.584964e+001	2.501268e+001	-3.585754e+001	2.941151e+001	-1.727004e-001	1.108026e+002
1087783688	-1.101057e+000	-4.009663e+001	-3.589109e+001	2.451322e+001	-3.519138e+001	2.709485e+001	-1.793293e-001	1.097519e+002
1100283500	-1.130475e+000	-8.157476e+001	-3.579301e+001	2.472833e+001	-3.507944e+001	2.220834e+001	-1.771454e-001	1.086674e+002
1112783313	-1.149913e+000	-1.229767e+002	-3.558128e+001	2.451622e+001	-3.552144e+001	2.011395e+001	-1.750041e-001	1.076094e+002
1125283125	-1.146238e+000	-1.636457e+002	-3.533052e+001	2.354090e+001	-3.568265e+001	2.154767e+001	-1.731626e-001	1.065312e+002
1137782938	-1.134844e+000	1.567137e+002	-3.513658e+001	2.209378e+001	-3.537535e+001	2.244557e+001	-1.761357e-001	1.054467e+002
1150282750	-1.113626e+000	1.179158e+002	-3.506811e+001	2.040147e+001	-3.510723e+001	2.069219e+001	-1.784811e-001	1.043391e+002
1162782563	-1.103757e+000	7.950412e+001	-3.507755e+001	1.882643e+001	-3.514646e+001	1.888275e+001	-1.808664e-001	1.032546e+002
1175282375	-1.102864e+000	4.073531e+001	-3.512767e+001	1.790818e+001	-3.525991e+001	1.887761e+001	-1.822622e-001	1.021718e+002
1187782188	-1.120709e+000	1.142171e+000	-3.519522e+001	1.755188e+001	-3.507071e+001	2.018896e+001	-1.821611e-001	1.011101e+002
1200282000	-1.151715e+000	-3.954220e+001	-3.517147e+001	1.771797e+001	-3.454747e+001	1.954818e+001	-1.868187e-001	9.999758e+001
1212781813	-1.183403e+000	-8.094744e+001	-3.508831e+001	1.780881e+001	-3.425677e+001	1.519176e+001	-1.876306e-001	9.893698e+001
1225281625	-1.211687e+000	-1.223930e+002	-3.488292e+001	1.758203e+001	-3.461744e+001	1.123949e+001	-1.898991e-001	9.783918e+001
1237781438	-1.211153e+000	-1.632112e+002	-3.465569e+001	1.672403e+001	-3.508345e+001	1.207645e+001	-1.916228e-001	9.675296e+001
1250281250	-1.194906e+000	1.570505e+002	-3.450853e+001	1.485081e+001	-3.496735e+001	1.418806e+001	-1.902517e-001	9.566935e+001
1262781063	-1.171095e+000	1.182309e+002	-3.454368e+001	1.236197e+001	-3.460858e+001	1.293422e+001	-1.929283e-001	9.457112e+001
1275280875	-1.153347e+000	7.984655e+001	-3.473498e+001	1.100964e+001	-3.475005e+001	1.073775e+001	-1.962551e-001	9.348458e+001
1287780688	-1.150282e+000	4.114520e+001	-3.503679e+001	1.076893e+001	-3.500030e+001	1.199647e+001	-1.933112e-001	9.238357e+001
1300280500	-1.171183e+000	1.590522e+000	-3.519834e+001	1.262668e+001	-3.452737e+001	1.435599e+001	-1.952126e-001	9.127186e+001
1312780313	-1.205361e+000	-3.911643e+001	-3.494553e+001	1.461921e+001	-3.376669e+001	1.048589e+001	-1.977499e-001	9.016567e+001
1325280125	-1.244627e+000	-8.069819e+001	-3.447363e+001	1.483668e+001	-3.398974e+001	3.411312e+000	-1.988537e-001	8.908924e+001
1337779938	-1.276099e+000	-1.224418e+002	-3.404333e+001	1.252327e+001	-3.495726e+001	1.619487e+000	-1.955587e-001	8.798209e+001
1350279750	-1.273398e+000	-1.634812e+002	-3.393005e+001	8.785271e+000	-3.537842e+001	6.019657e+000	-1.989576e-001	8.685785e+001
1362779563	-1.247397e+000	1.566381e+002	-3.411640e+001	5.626333e+000	-3.495701e+001	7.669954e+000	-1.996980e-001	8.569160e+001
1375279375	-1.215543e+000	1.178739e+002	-3.448038e+001	3.814936e+000	-3.470081e+001	5.414446e+000	-2.022068e-001	8.459561e+001
1387779188	-1.195448e+000	7.970059e+001	-3.489566e+001	4.078970e+000	-3.492277e+001	3.706739e+000	-2.055357e-001	8.347265e+001
1400279000	-1.188735e+000	4.136368e+001	-3.500891e+001	5.497700e+000	-3.507460e+001	4.610756e+000	-2.072755e-001	8.232753e+001
1412778813	-1.209274e+000	2.154451e+000	-3.482964e+001	6.519808e+000	-3.471800e+001	4.657412e+000	-2.108531e-001	8.120395e+001
1425278625	-1.258044e+000	-3.834077e+001	-3.457272e+001	5.930241e+000	-3.454677e+001	3.790167e-001	-2.138295e-001	8.006048e+001
1437778438	-1.308115e+000	-8.002583e+001	-3.438063e+001	3.525774e+000	-3.508617e+001	-3.973654e+000	-2.160795e-001	7.891018e+001
1450278250	-1.343033e+000	-1.221505e+002	-3.438567e+001	2.766974e-001	-3.590505e+001	-3.529714e+000	-2.173547e-001	7.778301e+001
1462778063	-1.345586e+000	-1.637716e+002	-3.468874e+001	-2.943354e+000	-3.611496e+001	-3.363017e-001	-2.209222e-001	7.661061e+001
1475277875	-1.315696e+000	1.557884e+002	-3.520928e+001	-4.858062e+000	-3.592675e+001	3.641951e-001	-2.209846e-001	7.548040e+001
1487777688	-1.275172e+000	1.166311e+002	-3.577319e+001	-5.483422e+000	-3.591499e+001	-1.641060e+000	-2.256945e-001	7.425099e+001
1500277500	-1.244724e+000	7.833016e+001	-3.623199e+001	-4.779275e+000	-3.624610e+001	-2.951348e+000	-2.266179e-001	7.313142e+001
1512777313	-1.228045e+000	4.014368e+001	-3.651533e+001	-3.221826e+000	-3.644864e+001	-3.108431e+000	-2.290455e-001	7.194426e+001
1525277125	-1.249446e+000	1.276363e+000	-3.659953e+001	-2.419797e+000	-3.655769e+001	-4.979450e+000	-2.326080e-001	7.076354e+001
1537776938	-1.295414e+000	-3.877515e+001	-3.660763e+001	-2.906447e+000	-3.720363e+001	-8.540831e+000	-2.393372e-001	6.959371e+001
1550276750	-1.346816e+000	-7.996785e+001	-3.680162e+001	-5.212892e+000	-3.828607e+001	-7.916847e+000	-2.389023e-001	6.838395e+001
1562776563	-1.386015e+000	-1.217544e+002	-3.730725e+001	-8.171999e+000	-3.890732e+001	-3.465504e+000	-2.444821e-001	6.715475e+001
1575276375	-1.394738e+000	-1.631347e+002	-3.812348e+001	-9.917923e+000	-3.884907e+001	-1.544935e+000	-2.455826e-001	6.594543e+001
1587776188	-1.366579e+000	1.565641e+002	-3.915172e+001	-9.480533e+000	-3.916714e+001	-3.226341e+000	-2.525020e-001	6.469765e+001
1600276000	-1.323820e+000	1.175850e+002	-4.007864e+001	-7.521513e+000	-3.994773e+001	-4.295988e+000	-2.529162e-001	6.348029e+001
1612775813	-1.288789e+000	7.956646e+001	-4.089735e+001	-4.457923e+000	-4.085744e+001	-3.390628e+000	-2.577439e-001	6.222940e+001
1625275625	-1.276926e+000	4.173347e+001	-4.169634e+001	-2.077504e+000	-4.193851e+001	-2.599402e+000	-2.581855e-001	6.096338e+001
1637775438	-1.297327e+000	3.266344e+000	-4.275546e+001	-5.559020e-001	-4.355229e+001	-3.576056e-001	-2.670548e-001	5.969802e+001
1650275250	-1.351911e+000	-3.649176e+001	-4.431570e+001	2.719903e+000	-4.545069e+001	7.293276e+000	-2.716329e-001	5.841100e+001
1662775063	-1.426082e+000	-7.769048e+001	-4.626798e+001	9.686529e+000	-4.687308e+001	2.046436e+001	-2.750214e-001	5.708410e+001
1675274875	-1.481660e+000	-1.198518e+002	-4.845463e+001	2.459872e+001	-4.794418e+001	3.534127e+001	-2.811212e-001	5.580034e+001
1687774688	-1.496031e+000	-1.619798e+002	-4.970356e+001	5.032772e+001	-4.889923e+001	5.439009e+001	-2.872136e-001	5.446071e+001
1700274500	-1.477475e+000	1.568041e+002	-4.899893e+001	7.879102e+001	-4.851412e+001	7.935916e+001	-2.891647e-001	5.313073e+001
1712774313	-1.431106e+000	1.169254e+002	-4.639006e+001	9.888937e+001	-4.629136e+001	1.004130e+002	-2.992819e-001	5.177750e+001
1725274125	-1.385859e+000	7.818798e+001	-4.384079e+001	1.109462e+002	-4.376320e+001	1.118933e+002	-3.042296e-001	5.038179e+001
1737773938	-1.362006e+000	3.984714e+001	-4.154597e+001	1.165404e+002	-4.157619e+001	1.174978e+002	-3.094503e-001	4.898198e+001
1750273750	-1.384983e+000	1.082082e+000	-3.958466e+001	1.196147e+002	-3.984278e+001	1.215927e+002	-3.216425e-001	4.755051e+001
1762773563	-1.440410e+000	-3.885565e+001	-3.784202e+001	1.215211e+002	-3.815937e+001	1.262692e+002	-3.289075e-001	4.612172e+001
1775273375	-1.516466e+000	-8.019044e+001	-3.634480e+001	1.232025e+002	-3.619926e+001	1.302558e+002	-3.354876e-001	4.467211e+001
1787773188	-1.582426e+000	-1.224754e+002	-3.494982e+001	1.243831e+002	-3.414841e+001	1.299059e+002	-3.480165e-001	4.318673e+001
1800273000	-1.602685e+000	-1.648810e+002	-3.360845e+001	1.252165e+002	-3.264869e+001	1.261600e+002	-3.576424e-001	4.168264e+001
1812772813	-1.582885e+000	1.536452e+002	-3.224859e+001	1.255881e+002	-3.179308e+001	1.239469e+002	-3.749302e-001	4.010615e+001
1825272625	-1.532077e+000	1.135580e+002	-3.096806e+001	1.252151e+002	-3.089808e+001	1.250147e+002	-3.831389e-001	3.853738e+001
1837772438	-1.486599e+000	7.465098e+001	-2.977962e+001	1.238731e+002	-2.961289e+001	1.251023e+002	-3.959912e-001	3.692048e+001
1850272250	-1.467991e+000	3.626870e+001	-2.874887e+001	1.221727e+002	-2.857702e+001	1.227841e+002	-4.142732e-001	3.529699e+001
1862772063	-1.490120e+000	-2.459454e+000	-2.792356e+001	1.206903e+002	-2.801102e+001	1.223547e+002	-4.296905e-001	3.356786e+001
1875271875	-1.553706e+000	-4.223694e+001	-2.717696e+001	1.203270e+002	-2.709820e+001	1.262614e+002	-4.502160e-001	3.187306e+001
1887771688	-1.647207e+000	-8.331712e+001	-2.636599e+001	1.213461e+002	-2.522996e+001	1.274060e+002	-4.650257e-001	3.005451e+001
1900271500	-1.730054e+000	-1.254444e+002	-2.528664e+001	1.226431e+002	-2.364924e+001	1.210316e+002	-4.852304e-001	2.825715e+001
