!Agilent Technologies,E5071C,MY46215201,A.10.06
!Date: Mon Nov 18 15:29:36 2019
!Data & Calibration Information:
!Freq	S11:SOLT2(ON)	S21:SOLT2(ON)	S12:SOLT2(ON)	S22:SOLT2(ON)
!PortZ  Port1:50+j0    Port2:50+j0
!Above PortZ is port z conversion or system Z0 setting when saving the data.
!When reading, reference impedance value at option line is always used.
# Hz S dB R 50
300000	3.767610e-003	-1.165262e+000	-8.100083e+001	3.697544e+001	-7.085773e+001	1.504343e+002	-4.932150e-003	-2.933104e-001
12799813	-2.436960e-002	-5.627341e+001	-3.902948e+001	7.269582e+001	-3.905333e+001	7.393780e+001	-1.902692e-003	-1.551831e+001
25299625	-1.069013e-001	-1.103472e+002	-3.387159e+001	5.926695e+001	-3.349776e+001	6.168603e+001	-5.650789e-003	-3.027029e+001
37799438	-2.263396e-001	-1.630113e+002	-3.111174e+001	4.809271e+001	-3.019087e+001	4.687526e+001	-1.534647e-002	-4.418864e+001
50299250	-3.171820e-001	1.457533e+002	-2.913315e+001	3.765795e+001	-2.867537e+001	3.018891e+001	-2.073370e-002	-5.711485e+001
62799063	-3.612335e-001	9.542090e+001	-2.771179e+001	2.581302e+001	-2.842891e+001	1.886585e+001	-3.070523e-002	-6.886397e+001
75298875	-3.624222e-001	4.575028e+001	-2.691599e+001	1.309050e+001	-2.798474e+001	1.326505e+001	-3.260937e-002	-7.952223e+001
87798688	-3.374159e-001	-3.345866e+000	-2.675744e+001	1.374755e+000	-2.712809e+001	4.890337e+000	-5.056345e-002	-8.904940e+001
100298500	-3.246011e-001	-5.147325e+001	-2.700810e+001	-7.970640e+000	-2.690081e+001	-6.462136e+000	-4.211801e-002	-9.758334e+001
112798313	-3.307162e-001	-9.838249e+001	-2.734614e+001	-1.453426e+001	-2.732808e+001	-1.473880e+001	-4.254728e-002	-1.052263e+002
125298125	-3.646834e-001	-1.439817e+002	-2.752293e+001	-1.963143e+001	-2.743738e+001	-2.019665e+001	-4.562694e-002	-1.121264e+002
137797938	-4.210767e-001	1.714264e+002	-2.754789e+001	-2.529616e+001	-2.757859e+001	-2.888211e+001	-5.205793e-002	-1.182886e+002
150297750	-4.659271e-001	1.275624e+002	-2.765654e+001	-3.204612e+001	-2.853826e+001	-3.655119e+001	-5.751833e-002	-1.238853e+002
162797563	-4.792998e-001	8.369517e+001	-2.797340e+001	-3.948804e+001	-2.957941e+001	-3.674337e+001	-5.913097e-002	-1.289541e+002
175297375	-4.701793e-001	3.965959e+001	-2.860977e+001	-4.635127e+001	-2.930177e+001	-3.530819e+001	-6.392876e-002	-1.335984e+002
187797188	-4.574202e-001	-4.466732e+000	-2.946190e+001	-5.139089e+001	-2.871673e+001	-4.251878e+001	-6.995845e-002	-1.378530e+002
200297000	-4.458613e-001	-4.835192e+001	-3.028402e+001	-5.400879e+001	-2.930826e+001	-5.292073e+001	-7.130189e-002	-1.417871e+002
212796813	-4.499620e-001	-9.158300e+001	-3.085772e+001	-5.525756e+001	-3.062155e+001	-5.690933e+001	-7.425689e-002	-1.453971e+002
225296625	-4.737054e-001	-1.338837e+002	-3.117066e+001	-5.719060e+001	-3.116072e+001	-5.705460e+001	-7.724625e-002	-1.488072e+002
237796438	-5.088784e-001	-1.754190e+002	-3.145106e+001	-6.049340e+001	-3.149122e+001	-6.093669e+001	-7.924353e-002	-1.519667e+002
250296250	-5.413594e-001	1.435691e+002	-3.185861e+001	-6.467612e+001	-3.235331e+001	-6.479334e+001	-8.542749e-002	-1.549460e+002
262796063	-5.570372e-001	1.025565e+002	-3.251225e+001	-6.885753e+001	-3.323817e+001	-6.365714e+001	-8.511033e-002	-1.577696e+002
275295875	-5.582214e-001	6.118160e+001	-3.331907e+001	-7.172243e+001	-3.314960e+001	-6.194630e+001	-8.679170e-002	-1.604311e+002
287795688	-5.548514e-001	1.930829e+001	-3.418745e+001	-7.320983e+001	-3.286490e+001	-6.685157e+001	-9.199042e-002	-1.629647e+002
300295500	-5.471402e-001	-2.296258e+001	-3.480018e+001	-7.322361e+001	-3.345675e+001	-7.451614e+001	-9.112545e-002	-1.653648e+002
312795313	-5.469717e-001	-6.519005e+001	-3.521486e+001	-7.383539e+001	-3.468292e+001	-7.842427e+001	-9.222426e-002	-1.676851e+002
325295125	-5.642415e-001	-1.069462e+002	-3.556839e+001	-7.520793e+001	-3.559535e+001	-7.770705e+001	-9.550230e-002	-1.698739e+002
337794938	-5.864399e-001	-1.479470e+002	-3.601587e+001	-7.790745e+001	-3.600442e+001	-7.811373e+001	-9.862126e-002	-1.719638e+002
350294750	-6.116651e-001	1.717219e+002	-3.656182e+001	-8.051700e+001	-3.653964e+001	-8.048659e+001	-1.023029e-001	-1.740008e+002
362794563	-6.335036e-001	1.316844e+002	-3.725666e+001	-8.290836e+001	-3.734166e+001	-8.226833e+001	-1.031515e-001	-1.759564e+002
375294375	-6.472303e-001	9.156586e+001	-3.801188e+001	-8.479107e+001	-3.806950e+001	-8.135820e+001	-1.043125e-001	-1.778565e+002
387794188	-6.504083e-001	5.096854e+001	-3.879348e+001	-8.569137e+001	-3.834016e+001	-8.137758e+001	-1.082803e-001	-1.796895e+002
400294000	-6.465948e-001	9.741169e+000	-3.957899e+001	-8.653421e+001	-3.848776e+001	-8.483054e+001	-1.084239e-001	1.785226e+002
412793813	-6.409274e-001	-3.190352e+001	-4.030087e+001	-8.731803e+001	-3.926209e+001	-9.048546e+001	-1.110998e-001	1.767808e+002
425293625	-6.469465e-001	-7.358056e+001	-4.096471e+001	-8.781170e+001	-4.068742e+001	-9.352914e+001	-1.122769e-001	1.750940e+002
437793438	-6.637718e-001	-1.148288e+002	-4.170779e+001	-8.908751e+001	-4.187947e+001	-9.183392e+001	-1.156785e-001	1.734560e+002
450293250	-6.833191e-001	-1.554262e+002	-4.249894e+001	-9.051917e+001	-4.259668e+001	-9.094703e+001	-1.146333e-001	1.718559e+002
462793063	-7.009333e-001	1.646822e+002	-4.343451e+001	-9.288497e+001	-4.336889e+001	-9.266491e+001	-1.181505e-001	1.702887e+002
475292875	-7.172058e-001	1.252285e+002	-4.459188e+001	-9.457180e+001	-4.455004e+001	-9.322061e+001	-1.214379e-001	1.687458e+002
487792688	-7.222530e-001	8.575365e+001	-4.590722e+001	-9.460729e+001	-4.565721e+001	-9.151452e+001	-1.230190e-001	1.672461e+002
500292500	-7.205467e-001	4.581003e+001	-4.730057e+001	-9.346934e+001	-4.648166e+001	-9.171400e+001	-1.254706e-001	1.657425e+002
512792313	-7.203554e-001	5.327578e+000	-4.883907e+001	-9.178536e+001	-4.769669e+001	-9.506347e+001	-1.259435e-001	1.642897e+002
525292125	-7.201860e-001	-3.564387e+001	-5.005994e+001	-9.014738e+001	-4.962829e+001	-9.617903e+001	-1.272402e-001	1.628664e+002
537791938	-7.301888e-001	-7.671027e+001	-5.185622e+001	-8.920607e+001	-5.202397e+001	-9.414781e+001	-1.319636e-001	1.614600e+002
550291750	-7.482510e-001	-1.175528e+002	-5.398322e+001	-8.779173e+001	-5.446335e+001	-8.984765e+001	-1.344068e-001	1.600726e+002
562791563	-7.681068e-001	-1.578437e+002	-5.732955e+001	-8.363775e+001	-5.780069e+001	-8.240598e+001	-1.378953e-001	1.587054e+002
575291375	-7.889322e-001	1.624157e+002	-6.133548e+001	-6.822993e+001	-6.145737e+001	-6.818892e+001	-1.384771e-001	1.573525e+002
587791188	-8.028981e-001	1.229214e+002	-6.443661e+001	-1.529135e+001	-6.541545e+001	-1.708627e+001	-1.380959e-001	1.560382e+002
600291000	-8.112067e-001	8.325542e+001	-6.181361e+001	2.781738e+001	-6.155061e+001	2.753876e+001	-1.401453e-001	1.547098e+002
612790813	-8.065862e-001	4.309475e+001	-5.781617e+001	4.472691e+001	-5.720341e+001	4.182981e+001	-1.429970e-001	1.534032e+002
625290625	-8.012435e-001	2.308078e+000	-5.472185e+001	5.038705e+001	-5.423840e+001	4.773759e+001	-1.467508e-001	1.521299e+002
637790438	-8.038109e-001	-3.892673e+001	-5.235310e+001	5.323164e+001	-5.198993e+001	4.818175e+001	-1.465642e-001	1.508678e+002
650290250	-8.127187e-001	-8.022523e+001	-5.048241e+001	5.327607e+001	-5.064963e+001	4.950780e+001	-1.478983e-001	1.496120e+002
662790063	-8.311112e-001	-1.211133e+002	-4.913037e+001	5.345809e+001	-4.952063e+001	5.186804e+001	-1.494400e-001	1.483505e+002
675289875	-8.455054e-001	-1.612124e+002	-4.800872e+001	5.324365e+001	-4.815796e+001	5.329199e+001	-1.529826e-001	1.471131e+002
687789688	-8.585670e-001	1.593664e+002	-4.693653e+001	5.323921e+001	-4.709407e+001	5.266740e+001	-1.527491e-001	1.459007e+002
700289500	-8.653864e-001	1.203006e+002	-4.618876e+001	5.280985e+001	-4.613682e+001	5.297680e+001	-1.560492e-001	1.446731e+002
712789313	-8.683634e-001	8.111642e+001	-4.541004e+001	5.296451e+001	-4.520035e+001	5.257587e+001	-1.563995e-001	1.434771e+002
725289125	-8.643770e-001	4.133397e+001	-4.471175e+001	5.258818e+001	-4.437326e+001	5.190939e+001	-1.608876e-001	1.422758e+002
737788938	-8.669638e-001	7.975716e-001	-4.384201e+001	5.272341e+001	-4.372709e+001	4.992485e+001	-1.599751e-001	1.410998e+002
750288750	-8.705749e-001	-4.040164e+001	-4.308126e+001	5.204365e+001	-4.321373e+001	4.852314e+001	-1.623267e-001	1.399092e+002
762788563	-8.821183e-001	-8.175949e+001	-4.240108e+001	5.017713e+001	-4.270122e+001	4.771098e+001	-1.640217e-001	1.387217e+002
775288375	-9.029594e-001	-1.226233e+002	-4.194375e+001	4.835949e+001	-4.231449e+001	4.708258e+001	-1.640650e-001	1.375544e+002
787788188	-9.140626e-001	-1.626521e+002	-4.161589e+001	4.734645e+001	-4.188339e+001	4.730182e+001	-1.651450e-001	1.363855e+002
800288000	-9.215566e-001	1.581683e+002	-4.132084e+001	4.697126e+001	-4.130437e+001	4.662013e+001	-1.666589e-001	1.352167e+002
812787813	-9.228788e-001	1.194623e+002	-4.086362e+001	4.677460e+001	-4.080311e+001	4.560744e+001	-1.710546e-001	1.340954e+002
825287625	-9.187955e-001	8.073467e+001	-4.038508e+001	4.617632e+001	-4.055874e+001	4.411427e+001	-1.689452e-001	1.329476e+002
837787438	-9.193406e-001	4.141679e+001	-3.986593e+001	4.470138e+001	-4.032216e+001	4.435525e+001	-1.701081e-001	1.318086e+002
850287250	-9.223276e-001	1.200589e+000	-3.954835e+001	4.358175e+001	-3.976607e+001	4.485352e+001	-1.719962e-001	1.306870e+002
862787063	-9.409647e-001	-3.995638e+001	-3.921240e+001	4.212619e+001	-3.910035e+001	4.307397e+001	-1.737983e-001	1.295630e+002
875286875	-9.676652e-001	-8.154000e+001	-3.896162e+001	4.096550e+001	-3.882296e+001	3.981639e+001	-1.737994e-001	1.284507e+002
887786688	-9.814285e-001	-1.229260e+002	-3.870028e+001	3.990051e+001	-3.887694e+001	3.796415e+001	-1.730490e-001	1.273245e+002
900286500	-9.986305e-001	-1.634968e+002	-3.846747e+001	3.924011e+001	-3.878474e+001	3.874827e+001	-1.765260e-001	1.262007e+002
912786313	-9.958558e-001	1.568383e+002	-3.819772e+001	3.808116e+001	-3.837978e+001	3.891087e+001	-1.757331e-001	1.250825e+002
925286125	-9.813614e-001	1.178682e+002	-3.796132e+001	3.708686e+001	-3.805365e+001	3.742007e+001	-1.743578e-001	1.239849e+002
937785938	-9.668105e-001	7.906456e+001	-3.777883e+001	3.605373e+001	-3.780081e+001	3.575546e+001	-1.745356e-001	1.228701e+002
950285750	-9.563068e-001	3.983513e+001	-3.757169e+001	3.502399e+001	-3.773830e+001	3.509922e+001	-1.773918e-001	1.217586e+002
962785563	-9.793033e-001	-1.128859e-001	-3.733444e+001	3.428939e+001	-3.752367e+001	3.541604e+001	-1.770511e-001	1.206573e+002
975285375	-1.002275e+000	-4.089060e+001	-3.717925e+001	3.352384e+001	-3.705644e+001	3.469649e+001	-1.788050e-001	1.195537e+002
987785188	-1.026311e+000	-8.207399e+001	-3.698738e+001	3.212637e+001	-3.676127e+001	3.214478e+001	-1.819622e-001	1.184303e+002
1000285000	-1.046840e+000	-1.230227e+002	-3.685555e+001	3.153544e+001	-3.678929e+001	2.971224e+001	-1.860519e-001	1.173572e+002
1012784813	-1.056092e+000	-1.632766e+002	-3.669429e+001	3.102154e+001	-3.691150e+001	2.988622e+001	-1.848771e-001	1.162564e+002
1025284625	-1.047710e+000	1.573405e+002	-3.650485e+001	3.013813e+001	-3.661282e+001	3.062280e+001	-1.898443e-001	1.151755e+002
1037784438	-1.034681e+000	1.186242e+002	-3.627098e+001	2.938979e+001	-3.630472e+001	2.901864e+001	-1.879926e-001	1.140729e+002
1050284250	-1.026069e+000	8.006401e+001	-3.606777e+001	2.789379e+001	-3.633348e+001	2.714921e+001	-1.887289e-001	1.130017e+002
1062784063	-1.028234e+000	4.108826e+001	-3.599408e+001	2.644223e+001	-3.641217e+001	2.790955e+001	-1.895921e-001	1.119122e+002
1075283875	-1.044770e+000	1.212653e+000	-3.596078e+001	2.540389e+001	-3.599368e+001	2.965460e+001	-1.912457e-001	1.108002e+002
1087783688	-1.073457e+000	-3.969906e+001	-3.597078e+001	2.476126e+001	-3.531249e+001	2.722697e+001	-1.978091e-001	1.097431e+002
1100283500	-1.102346e+000	-8.117315e+001	-3.587735e+001	2.496871e+001	-3.522519e+001	2.253829e+001	-1.958508e-001	1.086709e+002
1112783313	-1.122146e+000	-1.225853e+002	-3.567921e+001	2.478300e+001	-3.560570e+001	2.036824e+001	-1.931162e-001	1.076113e+002
1125283125	-1.118198e+000	-1.632682e+002	-3.542105e+001	2.400452e+001	-3.576487e+001	2.196362e+001	-1.922851e-001	1.065347e+002
1137782938	-1.108283e+000	1.570808e+002	-3.525294e+001	2.244821e+001	-3.546328e+001	2.260328e+001	-1.937846e-001	1.054479e+002
1150282750	-1.087143e+000	1.182724e+002	-3.514889e+001	2.060139e+001	-3.521290e+001	2.101278e+001	-1.964596e-001	1.043345e+002
1162782563	-1.078556e+000	7.986029e+001	-3.516930e+001	1.916462e+001	-3.521577e+001	1.916814e+001	-1.989788e-001	1.032547e+002
1175282375	-1.077394e+000	4.109897e+001	-3.522407e+001	1.825807e+001	-3.532572e+001	1.911464e+001	-2.007298e-001	1.021738e+002
1187782188	-1.092869e+000	1.509999e+000	-3.525616e+001	1.792520e+001	-3.516477e+001	2.035680e+001	-1.997685e-001	1.011099e+002
1200282000	-1.124030e+000	-3.916579e+001	-3.527264e+001	1.799873e+001	-3.460940e+001	1.979518e+001	-2.038308e-001	9.999310e+001
1212781813	-1.156405e+000	-8.056976e+001	-3.516844e+001	1.807761e+001	-3.430399e+001	1.558336e+001	-2.032672e-001	9.893808e+001
1225281625	-1.185118e+000	-1.220264e+002	-3.496068e+001	1.795153e+001	-3.466002e+001	1.164635e+001	-2.066910e-001	9.784103e+001
1237781438	-1.185627e+000	-1.628469e+002	-3.474126e+001	1.677795e+001	-3.517886e+001	1.249504e+001	-2.080263e-001	9.676212e+001
1250281250	-1.169542e+000	1.573984e+002	-3.456194e+001	1.508658e+001	-3.503278e+001	1.441629e+001	-2.053871e-001	9.567865e+001
1262781063	-1.147040e+000	1.185702e+002	-3.460875e+001	1.279339e+001	-3.467891e+001	1.313134e+001	-2.080069e-001	9.457511e+001
1275280875	-1.128796e+000	8.017860e+001	-3.480938e+001	1.134620e+001	-3.481804e+001	1.100207e+001	-2.122806e-001	9.350014e+001
1287780688	-1.126720e+000	4.148413e+001	-3.511306e+001	1.111361e+001	-3.508273e+001	1.226579e+001	-2.080357e-001	9.239510e+001
1300280500	-1.146551e+000	1.941099e+000	-3.525114e+001	1.277932e+001	-3.460125e+001	1.470157e+001	-2.090899e-001	9.128713e+001
1312780313	-1.179572e+000	-3.876188e+001	-3.500956e+001	1.492478e+001	-3.383224e+001	1.090883e+001	-2.107897e-001	9.018328e+001
1325280125	-1.219759e+000	-8.034784e+001	-3.452436e+001	1.515987e+001	-3.403014e+001	3.860297e+000	-2.128788e-001	8.910372e+001
1337779938	-1.250037e+000	-1.220948e+002	-3.410237e+001	1.280978e+001	-3.501225e+001	1.897284e+000	-2.099062e-001	8.800219e+001
1350279750	-1.248807e+000	-1.631324e+002	-3.396836e+001	8.995915e+000	-3.543351e+001	6.224990e+000	-2.117694e-001	8.688584e+001
1362779563	-1.225052e+000	1.569728e+002	-3.418806e+001	5.766085e+000	-3.503092e+001	8.031373e+000	-2.125045e-001	8.571476e+001
1375279375	-1.192830e+000	1.182012e+002	-3.457657e+001	4.154655e+000	-3.475447e+001	5.797210e+000	-2.139373e-001	8.462473e+001
1387779188	-1.171898e+000	8.001602e+001	-3.494661e+001	4.420624e+000	-3.496209e+001	3.907265e+000	-2.178220e-001	8.350099e+001
1400279000	-1.166067e+000	4.167786e+001	-3.506268e+001	5.876952e+000	-3.511701e+001	4.960335e+000	-2.185534e-001	8.237358e+001
1412778813	-1.186933e+000	2.477273e+000	-3.488782e+001	6.930406e+000	-3.478877e+001	4.774456e+000	-2.222126e-001	8.123876e+001
1425278625	-1.235171e+000	-3.800814e+001	-3.461163e+001	6.239607e+000	-3.458997e+001	5.508138e-001	-2.238567e-001	8.010474e+001
1437778438	-1.283177e+000	-7.969868e+001	-3.439529e+001	3.949886e+000	-3.511668e+001	-3.641526e+000	-2.273262e-001	7.895616e+001
1450278250	-1.319749e+000	-1.218118e+002	-3.447325e+001	4.672397e-001	-3.597060e+001	-3.210276e+000	-2.267675e-001	7.783525e+001
1462778063	-1.323248e+000	-1.634565e+002	-3.474157e+001	-2.652019e+000	-3.618037e+001	7.053775e-002	-2.310591e-001	7.667042e+001
1475277875	-1.295342e+000	1.560915e+002	-3.525066e+001	-4.742752e+000	-3.595500e+001	8.066264e-001	-2.305930e-001	7.553612e+001
1487777688	-1.256753e+000	1.169220e+002	-3.580203e+001	-5.214306e+000	-3.596525e+001	-1.436361e+000	-2.352022e-001	7.431565e+001
1500277500	-1.225649e+000	7.860194e+001	-3.630521e+001	-4.258443e+000	-3.631136e+001	-2.715449e+000	-2.357026e-001	7.321088e+001
1512777313	-1.208864e+000	4.041436e+001	-3.655926e+001	-2.874412e+000	-3.649810e+001	-2.680759e+000	-2.377691e-001	7.202331e+001
1525277125	-1.230883e+000	1.557919e+000	-3.662829e+001	-1.987616e+000	-3.660653e+001	-4.725382e+000	-2.403669e-001	7.085129e+001
1537776938	-1.274659e+000	-3.849200e+001	-3.666267e+001	-2.557913e+000	-3.722145e+001	-8.228965e+000	-2.472909e-001	6.968980e+001
1550276750	-1.326554e+000	-7.967517e+001	-3.682119e+001	-4.932571e+000	-3.836024e+001	-7.833261e+000	-2.457246e-001	6.848182e+001
1562776563	-1.366239e+000	-1.214652e+002	-3.731899e+001	-7.500185e+000	-3.894734e+001	-2.995368e+000	-2.511707e-001	6.726485e+001
1575276375	-1.377275e+000	-1.628658e+002	-3.815416e+001	-9.497897e+000	-3.888220e+001	-8.577555e-001	-2.516439e-001	6.606197e+001
1587776188	-1.351702e+000	1.568195e+002	-3.917936e+001	-9.094978e+000	-3.919380e+001	-2.470513e+000	-2.588851e-001	6.482923e+001
1600276000	-1.308656e+000	1.178218e+002	-4.013440e+001	-6.720727e+000	-4.000055e+001	-3.510744e+000	-2.582856e-001	6.361601e+001
1612775813	-1.273632e+000	7.978133e+001	-4.093483e+001	-3.730890e+000	-4.092040e+001	-2.660588e+000	-2.631249e-001	6.236961e+001
1625275625	-1.261360e+000	4.195825e+001	-4.175468e+001	-1.334139e+000	-4.196180e+001	-2.298632e+000	-2.630126e-001	6.111837e+001
1637775438	-1.282289e+000	3.476475e+000	-4.274394e+001	2.657437e-001	-4.353186e+001	-5.614841e-002	-2.719780e-001	5.985459e+001
1650275250	-1.335767e+000	-3.626797e+001	-4.435914e+001	3.294932e+000	-4.549911e+001	8.274560e+000	-2.746542e-001	5.859671e+001
1662775063	-1.410558e+000	-7.747284e+001	-4.617253e+001	1.092055e+001	-4.682039e+001	2.152142e+001	-2.779567e-001	5.728655e+001
1675274875	-1.466219e+000	-1.196243e+002	-4.836659e+001	2.565256e+001	-4.791633e+001	3.644583e+001	-2.839761e-001	5.600168e+001
1687774688	-1.480928e+000	-1.617684e+002	-4.963409e+001	5.040620e+001	-4.871979e+001	5.569983e+001	-2.893927e-001	5.467668e+001
1700274500	-1.463185e+000	1.569964e+002	-4.873200e+001	7.908408e+001	-4.831245e+001	7.974634e+001	-2.906537e-001	5.335826e+001
1712774313	-1.417930e+000	1.171132e+002	-4.647590e+001	9.903487e+001	-4.619495e+001	9.971075e+001	-3.005272e-001	5.203080e+001
1725274125	-1.373613e+000	7.835162e+001	-4.385439e+001	1.111334e+002	-4.374811e+001	1.116569e+002	-3.042246e-001	5.064991e+001
1737773938	-1.350160e+000	3.999832e+001	-4.152549e+001	1.164252e+002	-4.154429e+001	1.172909e+002	-3.091640e-001	4.926789e+001
1750273750	-1.374072e+000	1.227586e+000	-3.952247e+001	1.195791e+002	-3.981306e+001	1.215224e+002	-3.205171e-001	4.785500e+001
1762773563	-1.430447e+000	-3.871290e+001	-3.784541e+001	1.215271e+002	-3.813247e+001	1.263422e+002	-3.273079e-001	4.644159e+001
1775273375	-1.505957e+000	-8.004757e+001	-3.632813e+001	1.229167e+002	-3.620386e+001	1.301288e+002	-3.311293e-001	4.502087e+001
1787773188	-1.571999e+000	-1.223355e+002	-3.496486e+001	1.243487e+002	-3.416895e+001	1.298931e+002	-3.460264e-001	4.355674e+001
1800273000	-1.593612e+000	-1.647610e+002	-3.359986e+001	1.253048e+002	-3.266216e+001	1.263594e+002	-3.536412e-001	4.206834e+001
1812772813	-1.576193e+000	1.537497e+002	-3.226473e+001	1.256029e+002	-3.181324e+001	1.240374e+002	-3.703346e-001	4.051984e+001
1825272625	-1.525337e+000	1.136448e+002	-3.098563e+001	1.251616e+002	-3.092487e+001	1.251356e+002	-3.786525e-001	3.897788e+001
1837772438	-1.481265e+000	7.472011e+001	-2.980955e+001	1.239773e+002	-2.963608e+001	1.252624e+002	-3.887836e-001	3.739256e+001
1850272250	-1.462615e+000	3.632664e+001	-2.876849e+001	1.221852e+002	-2.861167e+001	1.229136e+002	-4.058504e-001	3.579456e+001
1862772063	-1.486258e+000	-2.416795e+000	-2.794184e+001	1.207495e+002	-2.804621e+001	1.224811e+002	-4.200577e-001	3.409014e+001
1875271875	-1.551830e+000	-4.221311e+001	-2.720684e+001	1.204851e+002	-2.713533e+001	1.264083e+002	-4.408620e-001	3.242943e+001
1887771688	-1.645824e+000	-8.332183e+001	-2.639695e+001	1.214470e+002	-2.525949e+001	1.275953e+002	-4.537926e-001	3.066680e+001
1900271500	-1.728936e+000	-1.254604e+002	-2.532455e+001	1.227088e+002	-2.368767e+001	1.212323e+002	-4.735422e-001	2.890096e+001
