!Agilent Technologies,E5071C,MY46215201,A.10.06
!Date: Mon Nov 18 15:30:47 2019
!Data & Calibration Information:
!Freq	S11:SOLT2(ON)	S21:SOLT2(ON)	S12:SOLT2(ON)	S22:SOLT2(ON)
!PortZ  Port1:50+j0    Port2:50+j0
!Above PortZ is port z conversion or system Z0 setting when saving the data.
!When reading, reference impedance value at option line is always used.
# Hz S dB R 50
300000	-9.489841e-004	-1.181693e+000	-6.692536e+001	6.826381e+001	-6.551327e+001	6.805138e+001	-6.111617e-003	-3.218071e-001
12799813	-2.278697e-002	-5.712816e+001	-3.793604e+001	7.170365e+001	-3.797436e+001	7.315708e+001	-9.987649e-004	-1.636583e+001
25299625	-1.106009e-001	-1.119669e+002	-3.285091e+001	5.768509e+001	-3.244883e+001	6.012920e+001	-6.989760e-003	-3.183924e+001
37799438	-2.330667e-001	-1.652268e+002	-3.012675e+001	4.603096e+001	-2.922345e+001	4.458216e+001	-1.527908e-002	-4.636222e+001
50299250	-3.243650e-001	1.430733e+002	-2.821650e+001	3.490054e+001	-2.783037e+001	2.748459e+001	-2.147480e-002	-5.973775e+001
62799063	-3.649417e-001	9.237853e+001	-2.688360e+001	2.266344e+001	-2.764242e+001	1.601398e+001	-3.043170e-002	-7.178816e+001
75298875	-3.622649e-001	4.246741e+001	-2.619896e+001	9.840465e+000	-2.724857e+001	1.031974e+001	-3.200990e-002	-8.261775e+001
87798688	-3.380248e-001	-6.745524e+000	-2.611764e+001	-2.021050e+000	-2.645350e+001	1.654219e+000	-4.810202e-002	-9.222170e+001
100298500	-3.258883e-001	-5.489423e+001	-2.644894e+001	-1.126785e+001	-2.631962e+001	-9.899115e+000	-4.013897e-002	-1.007573e+002
112798313	-3.339164e-001	-1.017500e+002	-2.683723e+001	-1.777786e+001	-2.681900e+001	-1.795948e+001	-3.919315e-002	-1.083545e+002
125298125	-3.705491e-001	-1.472589e+002	-2.704061e+001	-2.283895e+001	-2.697071e+001	-2.342180e+001	-4.026191e-002	-1.151684e+002
137797938	-4.256658e-001	1.682319e+002	-2.710703e+001	-2.846301e+001	-2.717655e+001	-3.207168e+001	-4.604469e-002	-1.212276e+002
150297750	-4.711198e-001	1.244323e+002	-2.725615e+001	-3.527110e+001	-2.819955e+001	-3.946594e+001	-5.118392e-002	-1.267233e+002
162797563	-4.803257e-001	8.060793e+001	-2.762966e+001	-4.263881e+001	-2.922462e+001	-3.930151e+001	-5.146361e-002	-1.316795e+002
175297375	-4.725629e-001	3.662653e+001	-2.832952e+001	-4.924053e+001	-2.893675e+001	-3.802256e+001	-5.642294e-002	-1.362029e+002
187797188	-4.606287e-001	-7.425806e+000	-2.920431e+001	-5.408535e+001	-2.841057e+001	-4.534699e+001	-6.062360e-002	-1.403412e+002
200297000	-4.494439e-001	-5.120554e+001	-3.004994e+001	-5.645691e+001	-2.905553e+001	-5.574232e+001	-6.151160e-002	-1.441617e+002
212796813	-4.547547e-001	-9.430624e+001	-3.060839e+001	-5.770782e+001	-3.038851e+001	-5.940344e+001	-6.255486e-002	-1.476769e+002
225296625	-4.805337e-001	-1.364784e+002	-3.095123e+001	-5.946621e+001	-3.091224e+001	-5.935198e+001	-6.692377e-002	-1.509761e+002
237796438	-5.160017e-001	-1.778992e+002	-3.124653e+001	-6.276024e+001	-3.127146e+001	-6.331757e+001	-6.616661e-002	-1.540375e+002
250296250	-5.499217e-001	1.411502e+002	-3.169549e+001	-6.685232e+001	-3.217895e+001	-6.682907e+001	-7.279382e-002	-1.569249e+002
262796063	-5.646178e-001	1.001932e+002	-3.232987e+001	-7.092773e+001	-3.302422e+001	-6.560953e+001	-7.028091e-002	-1.596490e+002
275295875	-5.670637e-001	5.884371e+001	-3.317721e+001	-7.382660e+001	-3.293846e+001	-6.397640e+001	-7.368647e-002	-1.622339e+002
287795688	-5.626498e-001	1.699718e+001	-3.403645e+001	-7.500867e+001	-3.268423e+001	-6.902264e+001	-7.619373e-002	-1.646936e+002
300295500	-5.554719e-001	-2.523915e+001	-3.465742e+001	-7.502221e+001	-3.332939e+001	-7.665911e+001	-7.685352e-002	-1.670190e+002
312795313	-5.574509e-001	-6.739423e+001	-3.511159e+001	-7.538143e+001	-3.456397e+001	-8.017524e+001	-7.699859e-002	-1.692635e+002
325295125	-5.755669e-001	-1.090702e+002	-3.544943e+001	-7.701499e+001	-3.549650e+001	-7.936814e+001	-7.792506e-002	-1.713853e+002
337794938	-5.986600e-001	-1.499886e+002	-3.586656e+001	-7.946439e+001	-3.592719e+001	-7.966511e+001	-8.186606e-002	-1.734147e+002
350294750	-6.243644e-001	1.697460e+002	-3.647936e+001	-8.219881e+001	-3.643151e+001	-8.220731e+001	-8.399717e-002	-1.753856e+002
362794563	-6.459574e-001	1.297525e+002	-3.717962e+001	-8.475395e+001	-3.726647e+001	-8.361493e+001	-8.460633e-002	-1.772857e+002
375294375	-6.592498e-001	8.964578e+001	-3.794090e+001	-8.610101e+001	-3.801954e+001	-8.307702e+001	-8.603384e-002	-1.791406e+002
387794188	-6.623493e-001	4.904761e+001	-3.875502e+001	-8.738330e+001	-3.826744e+001	-8.271960e+001	-8.903705e-002	1.790768e+002
400294000	-6.598420e-001	7.826594e+000	-3.953217e+001	-8.794263e+001	-3.840344e+001	-8.616776e+001	-8.858525e-002	1.773470e+002
412793813	-6.559171e-001	-3.379103e+001	-4.024423e+001	-8.837571e+001	-3.925379e+001	-9.194458e+001	-9.101381e-002	1.756475e+002
425293625	-6.630397e-001	-7.543566e+001	-4.097415e+001	-8.898179e+001	-4.068539e+001	-9.436703e+001	-9.170683e-002	1.740142e+002
437793438	-6.790372e-001	-1.166264e+002	-4.168887e+001	-9.005069e+001	-4.187319e+001	-9.266677e+001	-9.416773e-002	1.724100e+002
450293250	-7.003010e-001	-1.571589e+002	-4.251629e+001	-9.137064e+001	-4.257169e+001	-9.200492e+001	-9.294403e-002	1.708443e+002
462793063	-7.177847e-001	1.629979e+002	-4.342293e+001	-9.423864e+001	-4.344955e+001	-9.396772e+001	-9.506334e-002	1.693220e+002
475292875	-7.337637e-001	1.235734e+002	-4.471510e+001	-9.496383e+001	-4.469117e+001	-9.426553e+001	-9.894726e-002	1.678180e+002
487792688	-7.383371e-001	8.411285e+001	-4.601481e+001	-9.546035e+001	-4.573105e+001	-9.293170e+001	-9.990911e-002	1.663337e+002
500292500	-7.386039e-001	4.417489e+001	-4.750726e+001	-9.439772e+001	-4.659500e+001	-9.284072e+001	-1.016064e-001	1.648785e+002
512792313	-7.379947e-001	3.675397e+000	-4.883619e+001	-9.282876e+001	-4.780222e+001	-9.631466e+001	-1.018021e-001	1.634524e+002
525292125	-7.397193e-001	-3.728918e+001	-5.052992e+001	-9.055508e+001	-5.007979e+001	-9.785987e+001	-1.024714e-001	1.620580e+002
537791938	-7.501921e-001	-7.834229e+001	-5.222950e+001	-9.006769e+001	-5.250224e+001	-9.433902e+001	-1.058661e-001	1.606858e+002
550291750	-7.681629e-001	-1.191577e+002	-5.461502e+001	-8.631975e+001	-5.496771e+001	-8.852068e+001	-1.086019e-001	1.593207e+002
562791563	-7.884485e-001	-1.594190e+002	-5.809964e+001	-7.938791e+001	-5.823116e+001	-8.171126e+001	-1.115961e-001	1.579732e+002
575291375	-8.090403e-001	1.608651e+002	-6.226774e+001	-5.884791e+001	-6.311915e+001	-5.821250e+001	-1.126965e-001	1.566419e+002
587791188	-8.231178e-001	1.213800e+002	-6.408483e+001	-6.814100e+000	-6.438659e+001	-3.333762e+000	-1.127931e-001	1.553618e+002
600291000	-8.323482e-001	8.170434e+001	-6.053078e+001	3.085422e+001	-6.008959e+001	3.244211e+001	-1.148305e-001	1.540548e+002
612790813	-8.283431e-001	4.151625e+001	-5.681477e+001	4.631773e+001	-5.637750e+001	4.431537e+001	-1.161649e-001	1.527669e+002
625290625	-8.239934e-001	7.237972e-001	-5.372091e+001	5.064849e+001	-5.353386e+001	4.731958e+001	-1.202560e-001	1.515182e+002
637790438	-8.282050e-001	-4.051990e+001	-5.179915e+001	5.243716e+001	-5.162523e+001	4.956892e+001	-1.203338e-001	1.502674e+002
650290250	-8.373884e-001	-8.180931e+001	-5.011006e+001	5.269769e+001	-5.026558e+001	4.871863e+001	-1.205577e-001	1.490254e+002
662790063	-8.540240e-001	-1.226614e+002	-4.865442e+001	5.308214e+001	-4.906431e+001	5.068120e+001	-1.224141e-001	1.477741e+002
675289875	-8.698157e-001	-1.627256e+002	-4.765072e+001	5.241117e+001	-4.777873e+001	5.203119e+001	-1.249420e-001	1.465558e+002
687789688	-8.824115e-001	1.578792e+002	-4.661361e+001	5.180095e+001	-4.669080e+001	5.226997e+001	-1.239544e-001	1.453624e+002
700289500	-8.890155e-001	1.188139e+002	-4.590331e+001	5.171429e+001	-4.577365e+001	5.149507e+001	-1.272011e-001	1.441372e+002
712789313	-8.914220e-001	7.961391e+001	-4.522134e+001	5.207128e+001	-4.498830e+001	5.172276e+001	-1.276064e-001	1.429551e+002
725289125	-8.899135e-001	3.980665e+001	-4.431238e+001	5.222525e+001	-4.410576e+001	5.132726e+001	-1.321774e-001	1.417720e+002
737788938	-8.932811e-001	-7.566638e-001	-4.363555e+001	5.194973e+001	-4.347927e+001	4.879294e+001	-1.314051e-001	1.406002e+002
750288750	-8.975149e-001	-4.196903e+001	-4.286446e+001	5.085551e+001	-4.293021e+001	4.768673e+001	-1.344909e-001	1.394131e+002
762788563	-9.090045e-001	-8.332346e+001	-4.223606e+001	4.965184e+001	-4.255659e+001	4.749193e+001	-1.346277e-001	1.382389e+002
775288375	-9.292306e-001	-1.241593e+002	-4.182655e+001	4.733717e+001	-4.211400e+001	4.626841e+001	-1.364976e-001	1.370803e+002
787788188	-9.412973e-001	-1.641590e+002	-4.147407e+001	4.665792e+001	-4.168978e+001	4.612898e+001	-1.379759e-001	1.359209e+002
800288000	-9.457485e-001	1.566852e+002	-4.112051e+001	4.588455e+001	-4.116897e+001	4.571170e+001	-1.395646e-001	1.347543e+002
812787813	-9.487770e-001	1.179843e+002	-4.074518e+001	4.556165e+001	-4.074539e+001	4.502726e+001	-1.425387e-001	1.336396e+002
825287625	-9.447815e-001	7.923162e+001	-4.026346e+001	4.555225e+001	-4.046797e+001	4.314478e+001	-1.406768e-001	1.324964e+002
837787438	-9.469293e-001	3.987751e+001	-3.982308e+001	4.433236e+001	-4.023204e+001	4.382399e+001	-1.419132e-001	1.313583e+002
850287250	-9.516401e-001	-3.926211e-001	-3.944286e+001	4.296900e+001	-3.969326e+001	4.408430e+001	-1.431102e-001	1.302409e+002
862787063	-9.726889e-001	-4.158111e+001	-3.915752e+001	4.151921e+001	-3.903298e+001	4.241231e+001	-1.450518e-001	1.291226e+002
875286875	-9.990903e-001	-8.317540e+001	-3.894225e+001	4.011055e+001	-3.880548e+001	3.885692e+001	-1.449416e-001	1.280112e+002
887786688	-1.012194e+000	-1.245526e+002	-3.868781e+001	3.912131e+001	-3.888472e+001	3.719533e+001	-1.453257e-001	1.268830e+002
900286500	-1.029308e+000	-1.650976e+002	-3.846192e+001	3.839633e+001	-3.877781e+001	3.782333e+001	-1.496920e-001	1.257589e+002
912786313	-1.024651e+000	1.552717e+002	-3.821717e+001	3.728478e+001	-3.839058e+001	3.786404e+001	-1.477099e-001	1.246396e+002
925286125	-1.011148e+000	1.162991e+002	-3.798963e+001	3.615639e+001	-3.803396e+001	3.663028e+001	-1.469041e-001	1.235413e+002
937785938	-9.981980e-001	7.748161e+001	-3.784708e+001	3.531018e+001	-3.787570e+001	3.494900e+001	-1.476110e-001	1.224214e+002
950285750	-9.898398e-001	3.820757e+001	-3.765067e+001	3.440879e+001	-3.780064e+001	3.440063e+001	-1.508377e-001	1.213054e+002
962785563	-1.012734e+000	-1.776133e+000	-3.746463e+001	3.357163e+001	-3.761642e+001	3.458197e+001	-1.512634e-001	1.202017e+002
975285375	-1.037097e+000	-4.258971e+001	-3.731039e+001	3.242346e+001	-3.722032e+001	3.397845e+001	-1.542067e-001	1.190905e+002
987785188	-1.062007e+000	-8.379093e+001	-3.716879e+001	3.166475e+001	-3.691686e+001	3.115642e+001	-1.576052e-001	1.179690e+002
1000285000	-1.081987e+000	-1.247306e+002	-3.704678e+001	3.066513e+001	-3.700728e+001	2.895383e+001	-1.618313e-001	1.168892e+002
1012784813	-1.090800e+000	-1.649547e+002	-3.691699e+001	3.033970e+001	-3.711103e+001	2.917292e+001	-1.611899e-001	1.157946e+002
1025284625	-1.080888e+000	1.556881e+002	-3.673044e+001	2.985186e+001	-3.688291e+001	3.007801e+001	-1.655504e-001	1.147119e+002
1037784438	-1.067491e+000	1.169782e+002	-3.650415e+001	2.866391e+001	-3.656033e+001	2.824715e+001	-1.623565e-001	1.136063e+002
1050284250	-1.058053e+000	7.839834e+001	-3.635434e+001	2.734986e+001	-3.660460e+001	2.644036e+001	-1.629765e-001	1.125169e+002
1062784063	-1.058453e+000	3.934921e+001	-3.631834e+001	2.545710e+001	-3.672077e+001	2.715151e+001	-1.630052e-001	1.114196e+002
1075283875	-1.077977e+000	-6.067203e-001	-3.632512e+001	2.445534e+001	-3.630713e+001	2.878062e+001	-1.653692e-001	1.102872e+002
1087783688	-1.108013e+000	-4.156904e+001	-3.637597e+001	2.402272e+001	-3.568561e+001	2.637582e+001	-1.701167e-001	1.091991e+002
1100283500	-1.136194e+000	-8.310690e+001	-3.630379e+001	2.410683e+001	-3.561802e+001	2.150917e+001	-1.686290e-001	1.080921e+002
1112783313	-1.155415e+000	-1.245264e+002	-3.615510e+001	2.399799e+001	-3.609108e+001	1.958734e+001	-1.667398e-001	1.070112e+002
1125283125	-1.150681e+000	-1.652003e+002	-3.594331e+001	2.306097e+001	-3.627878e+001	2.125750e+001	-1.665300e-001	1.059097e+002
1137782938	-1.139187e+000	1.551694e+002	-3.580710e+001	2.161007e+001	-3.602089e+001	2.189246e+001	-1.693857e-001	1.048109e+002
1150282750	-1.119856e+000	1.163631e+002	-3.576975e+001	1.992076e+001	-3.580860e+001	2.035859e+001	-1.739114e-001	1.036771e+002
1162782563	-1.111637e+000	7.792799e+001	-3.584465e+001	1.865738e+001	-3.586539e+001	1.849196e+001	-1.771538e-001	1.025808e+002
1175282375	-1.112753e+000	3.910103e+001	-3.591059e+001	1.752283e+001	-3.605972e+001	1.850622e+001	-1.783567e-001	1.014725e+002
1187782188	-1.129845e+000	-5.720120e-001	-3.601710e+001	1.728372e+001	-3.591702e+001	1.967300e+001	-1.784550e-001	1.003857e+002
1200282000	-1.162257e+000	-4.132642e+001	-3.610704e+001	1.729115e+001	-3.544224e+001	1.907039e+001	-1.836808e-001	9.925331e+001
1212781813	-1.196037e+000	-8.279351e+001	-3.606579e+001	1.755651e+001	-3.521699e+001	1.488306e+001	-1.846000e-001	9.817504e+001
1225281625	-1.225129e+000	-1.242766e+002	-3.594668e+001	1.758249e+001	-3.570468e+001	1.095150e+001	-1.854293e-001	9.705200e+001
1237781438	-1.222940e+000	-1.650786e+002	-3.579412e+001	1.632450e+001	-3.625425e+001	1.195902e+001	-1.882955e-001	9.593087e+001
1250281250	-1.204986e+000	1.551890e+002	-3.575345e+001	1.449311e+001	-3.617840e+001	1.410465e+001	-1.870858e-001	9.481230e+001
1262781063	-1.179337e+000	1.163546e+002	-3.584443e+001	1.219290e+001	-3.592794e+001	1.278452e+001	-1.899794e-001	9.367477e+001
1275280875	-1.163192e+000	7.791338e+001	-3.616283e+001	1.090436e+001	-3.618516e+001	1.059663e+001	-1.917008e-001	9.255623e+001
1287780688	-1.163180e+000	3.914022e+001	-3.659947e+001	1.094372e+001	-3.657375e+001	1.215389e+001	-1.903248e-001	9.140112e+001
1300280500	-1.185784e+000	-5.119544e-001	-3.684749e+001	1.288941e+001	-3.618561e+001	1.453356e+001	-1.931063e-001	9.024866e+001
1312780313	-1.223995e+000	-4.133608e+001	-3.674609e+001	1.494888e+001	-3.559164e+001	1.065887e+001	-1.940492e-001	8.910216e+001
1325280125	-1.263300e+000	-8.301847e+001	-3.643198e+001	1.526259e+001	-3.595150e+001	3.775822e+000	-1.977971e-001	8.797852e+001
1337779938	-1.293643e+000	-1.247944e+002	-3.616954e+001	1.297640e+001	-3.713345e+001	2.362274e+000	-1.963263e-001	8.682370e+001
1350279750	-1.289700e+000	-1.658258e+002	-3.623763e+001	9.593593e+000	-3.769381e+001	6.894623e+000	-2.002223e-001	8.565967e+001
1362779563	-1.263361e+000	1.542926e+002	-3.665628e+001	6.459427e+000	-3.745339e+001	8.721919e+000	-2.026019e-001	8.443746e+001
1375279375	-1.232367e+000	1.155187e+002	-3.725489e+001	5.119622e+000	-3.749371e+001	6.976571e+000	-2.045483e-001	8.328232e+001
1387779188	-1.213734e+000	7.728294e+001	-3.789004e+001	5.875550e+000	-3.796691e+001	5.506109e+000	-2.090886e-001	8.210421e+001
1400279000	-1.210118e+000	3.883791e+001	-3.835006e+001	8.037826e+000	-3.840029e+001	7.057734e+000	-2.114832e-001	8.090554e+001
1412778813	-1.235951e+000	-5.307199e-001	-3.852560e+001	9.205921e+000	-3.839901e+001	7.382365e+000	-2.159587e-001	7.971961e+001
1425278625	-1.287128e+000	-4.119250e+001	-3.863836e+001	9.434371e+000	-3.863255e+001	3.764928e+000	-2.192080e-001	7.850555e+001
1437778438	-1.338173e+000	-8.303448e+001	-3.890728e+001	7.675376e+000	-3.968087e+001	3.702229e-001	-2.247841e-001	7.728843e+001
1450278250	-1.372421e+000	-1.252423e+002	-3.953114e+001	5.771588e+000	-4.108227e+001	2.400754e+000	-2.255598e-001	7.609434e+001
1462778063	-1.374410e+000	-1.668990e+002	-4.047545e+001	4.305286e+000	-4.196009e+001	7.440078e+000	-2.315743e-001	7.484537e+001
1475277875	-1.342797e+000	1.526697e+002	-4.181796e+001	4.980535e+000	-4.242613e+001	1.064042e+001	-2.331626e-001	7.362955e+001
1487777688	-1.304796e+000	1.135127e+002	-4.334766e+001	7.673021e+000	-4.343383e+001	1.162001e+001	-2.390016e-001	7.231063e+001
1500277500	-1.275214e+000	7.513775e+001	-4.493685e+001	1.400176e+001	-4.497368e+001	1.570333e+001	-2.414781e-001	7.110194e+001
1512777313	-1.263937e+000	3.681718e+001	-4.669387e+001	2.394170e+001	-4.655398e+001	2.371742e+001	-2.464455e-001	6.981780e+001
1525277125	-1.290290e+000	-2.244686e+000	-4.823357e+001	3.931891e+001	-4.822653e+001	3.585287e+001	-2.516243e-001	6.853307e+001
1537776938	-1.341559e+000	-4.253682e+001	-4.926638e+001	6.084068e+001	-4.994566e+001	5.608698e+001	-2.601503e-001	6.725623e+001
1550276750	-1.396269e+000	-8.395062e+001	-4.859735e+001	8.636703e+001	-5.013570e+001	8.413286e+001	-2.611844e-001	6.592820e+001
1562776563	-1.436777e+000	-1.258757e+002	-4.640108e+001	1.053805e+002	-4.800490e+001	1.104655e+002	-2.703186e-001	6.457720e+001
1575276375	-1.443619e+000	-1.673380e+002	-4.414410e+001	1.165026e+002	-4.481263e+001	1.255240e+002	-2.737146e-001	6.324114e+001
1587776188	-1.416102e+000	1.523421e+002	-4.213560e+001	1.240846e+002	-4.209932e+001	1.300076e+002	-2.846860e-001	6.186501e+001
1600276000	-1.374118e+000	1.133192e+002	-4.021185e+001	1.296283e+002	-4.005783e+001	1.326094e+002	-2.870230e-001	6.049886e+001
1612775813	-1.344710e+000	7.517953e+001	-3.824703e+001	1.337881e+002	-3.821007e+001	1.350232e+002	-2.959022e-001	5.909216e+001
1625275625	-1.339669e+000	3.711966e+001	-3.633136e+001	1.354341e+002	-3.658828e+001	1.349473e+002	-3.002389e-001	5.765998e+001
1637775438	-1.373134e+000	-1.696108e+000	-3.461210e+001	1.346420e+002	-3.544766e+001	1.348452e+002	-3.131390e-001	5.621265e+001
1650275250	-1.438296e+000	-4.187407e+001	-3.328373e+001	1.327981e+002	-3.443613e+001	1.380826e+002	-3.214040e-001	5.475045e+001
1662775063	-1.522646e+000	-8.351077e+001	-3.224368e+001	1.313857e+002	-3.275033e+001	1.422937e+002	-3.315853e-001	5.322752e+001
1675274875	-1.582608e+000	-1.260184e+002	-3.136612e+001	1.311651e+002	-3.078293e+001	1.408390e+002	-3.437897e-001	5.171931e+001
1687774688	-1.595638e+000	-1.683750e+002	-3.040791e+001	1.322630e+002	-2.949534e+001	1.363920e+002	-3.570672e-001	5.015682e+001
1700274500	-1.575462e+000	1.502989e+002	-2.925878e+001	1.334305e+002	-2.870679e+001	1.339922e+002	-3.655886e-001	4.857215e+001
1712774313	-1.532905e+000	1.103185e+002	-2.800186e+001	1.334017e+002	-2.779826e+001	1.338968e+002	-3.849775e-001	4.696069e+001
1725274125	-1.499492e+000	7.137133e+001	-2.678808e+001	1.319224e+002	-2.669236e+001	1.327426e+002	-3.988120e-001	4.528164e+001
1737773938	-1.494583e+000	3.266556e+001	-2.571787e+001	1.298631e+002	-2.577302e+001	1.306923e+002	-4.148391e-001	4.356914e+001
1750273750	-1.541681e+000	-6.658917e+000	-2.480396e+001	1.276803e+002	-2.506819e+001	1.297796e+002	-4.383129e-001	4.180830e+001
1762773563	-1.627174e+000	-4.731416e+001	-2.397075e+001	1.258423e+002	-2.419860e+001	1.308882e+002	-4.608873e-001	4.001815e+001
1775273375	-1.725831e+000	-8.940003e+001	-2.316089e+001	1.245522e+002	-2.286179e+001	1.314703e+002	-4.816655e-001	3.818543e+001
1787773188	-1.808075e+000	-1.323225e+002	-2.231284e+001	1.235961e+002	-2.141125e+001	1.283073e+002	-5.148856e-001	3.627011e+001
1800273000	-1.835923e+000	-1.751668e+002	-2.140343e+001	1.226193e+002	-2.046235e+001	1.227029e+002	-5.448534e-001	3.430792e+001
1812772813	-1.821769e+000	1.431063e+002	-2.042922e+001	1.212129e+002	-2.002785e+001	1.192336e+002	-5.863825e-001	3.223438e+001
1825272625	-1.786989e+000	1.027699e+002	-1.943987e+001	1.191457e+002	-1.937970e+001	1.190638e+002	-6.236654e-001	3.012122e+001
1837772438	-1.775386e+000	6.346082e+001	-1.851799e+001	1.164603e+002	-1.833409e+001	1.175663e+002	-6.679563e-001	2.790355e+001
1850272250	-1.809865e+000	2.438089e+001	-1.771659e+001	1.134103e+002	-1.753926e+001	1.139187e+002	-7.241261e-001	2.562959e+001
1862772063	-1.907273e+000	-1.539082e+001	-1.704401e+001	1.108491e+002	-1.710557e+001	1.126737e+002	-7.855493e-001	2.317510e+001
1875271875	-2.061364e+000	-5.653025e+001	-1.640636e+001	1.093855e+002	-1.611940e+001	1.150713e+002	-8.616737e-001	2.068772e+001
1887771688	-2.247677e+000	-9.912884e+001	-1.560596e+001	1.090268e+002	-1.432359e+001	1.129466e+002	-9.431232e-001	1.802710e+001
1900271500	-2.410670e+000	-1.426667e+002	-1.452037e+001	1.083764e+002	-1.309335e+001	1.043812e+002	-1.039432e+000	1.529451e+001
