!Agilent Technologies,E5071C,MY46215201,A.10.06
!Date: Mon Nov 18 15:42:03 2019
!Data & Calibration Information:
!Freq	S11:SOLT2(ON)	S21:SOLT2(ON)	S12:SOLT2(ON)	S22:SOLT2(ON)
!PortZ  Port1:50+j0    Port2:50+j0
!Above PortZ is port z conversion or system Z0 setting when saving the data.
!When reading, reference impedance value at option line is always used.
# Hz S dB R 50
300000	-6.058395e-004	-7.601528e-001	-7.725981e+001	9.201678e+001	-6.756987e+001	1.703545e+002	-7.231595e-004	1.000386e-001
12799813	-9.256427e-003	-4.163163e+001	-6.638115e+001	8.636910e+001	-6.720430e+001	9.077949e+001	2.764629e-003	-1.021665e+000
25299625	-4.769190e-002	-8.213641e+001	-6.141797e+001	8.569271e+001	-6.139956e+001	8.727807e+001	1.157691e-003	-2.054835e+000
37799438	-1.175135e-001	-1.222768e+002	-5.790003e+001	8.637129e+001	-5.722472e+001	9.157787e+001	-2.006467e-003	-3.046471e+000
50299250	-1.921640e-001	-1.619834e+002	-5.544261e+001	8.826885e+001	-5.424058e+001	8.479272e+001	1.132838e-005	-4.057067e+000
62799063	-2.508514e-001	1.584953e+002	-5.336650e+001	8.867073e+001	-5.287648e+001	8.126586e+001	-1.719068e-003	-5.041867e+000
75298875	-2.988354e-001	1.189518e+002	-5.148366e+001	8.759696e+001	-5.173282e+001	8.203671e+001	-2.395753e-003	-6.070076e+000
87798688	-3.195216e-001	7.910359e+001	-4.998954e+001	8.676096e+001	-5.039268e+001	8.553970e+001	-6.804474e-003	-7.077646e+000
100298500	-3.139341e-001	3.895156e+001	-4.874160e+001	8.383682e+001	-4.892651e+001	8.544359e+001	-2.016612e-003	-8.069741e+000
112798313	-2.960518e-001	-1.533628e+000	-4.785681e+001	8.298987e+001	-4.790587e+001	8.211529e+001	-4.134308e-003	-9.068011e+000
125298125	-2.842658e-001	-4.203487e+001	-4.719810e+001	8.099995e+001	-4.712932e+001	8.162628e+001	-1.944131e-003	-1.008369e+001
137797938	-2.874259e-001	-8.236272e+001	-4.656512e+001	8.170876e+001	-4.598423e+001	8.315553e+001	-3.701673e-003	-1.109160e+001
150297750	-3.214292e-001	-1.221990e+002	-4.582754e+001	8.291423e+001	-4.471273e+001	7.829365e+001	-6.067779e-003	-1.209458e+001
162797563	-3.633891e-001	-1.615627e+002	-4.473911e+001	8.354033e+001	-4.445958e+001	7.200287e+001	-2.662631e-003	-1.311011e+001
175297375	-3.998721e-001	1.592940e+002	-4.374110e+001	8.256770e+001	-4.481670e+001	7.265628e+001	-3.880606e-003	-1.410473e+001
187797188	-4.276948e-001	1.200748e+002	-4.288803e+001	7.968422e+001	-4.436138e+001	7.909655e+001	-4.233003e-003	-1.511104e+001
200297000	-4.396273e-001	8.043587e+001	-4.231448e+001	7.619032e+001	-4.290569e+001	8.065873e+001	-4.608155e-003	-1.611481e+001
212796813	-4.381660e-001	4.027192e+001	-4.190296e+001	7.395768e+001	-4.191209e+001	7.624132e+001	-4.638168e-003	-1.712362e+001
225296625	-4.254203e-001	-4.180696e-001	-4.167566e+001	7.315493e+001	-4.173413e+001	7.300910e+001	-6.568664e-003	-1.813988e+001
237796438	-4.213277e-001	-4.129512e+001	-4.140400e+001	7.357338e+001	-4.130846e+001	7.356558e+001	-7.606365e-003	-1.914091e+001
250296250	-4.279078e-001	-8.195682e+001	-4.087256e+001	7.403383e+001	-4.045015e+001	7.151036e+001	-8.605883e-003	-2.015203e+001
262796063	-4.466343e-001	-1.220679e+002	-4.018072e+001	7.386935e+001	-4.025401e+001	6.630199e+001	-8.603705e-003	-2.115212e+001
275295875	-4.751522e-001	-1.616287e+002	-3.950473e+001	7.189135e+001	-4.066986e+001	6.544507e+001	-6.859873e-003	-2.217240e+001
287795688	-5.029135e-001	1.592693e+002	-3.900600e+001	6.916353e+001	-4.062756e+001	6.966160e+001	-8.719286e-003	-2.317069e+001
300295500	-5.259036e-001	1.202232e+002	-3.874282e+001	6.623846e+001	-3.972803e+001	7.240912e+001	-9.201082e-003	-2.418225e+001
312795313	-5.331090e-001	8.087335e+001	-3.858999e+001	6.463810e+001	-3.872204e+001	7.058202e+001	-9.993441e-003	-2.519296e+001
325295125	-5.329939e-001	4.096109e+001	-3.853651e+001	6.408170e+001	-3.827083e+001	6.630611e+001	-9.022859e-003	-2.620459e+001
337794938	-5.271325e-001	4.608511e-001	-3.831523e+001	6.446080e+001	-3.824195e+001	6.463403e+001	-1.210189e-002	-2.719445e+001
350294750	-5.204748e-001	-4.036704e+001	-3.795455e+001	6.452055e+001	-3.796730e+001	6.450283e+001	-9.621941e-003	-2.820683e+001
362794563	-5.302991e-001	-8.108927e+001	-3.749917e+001	6.396734e+001	-3.750279e+001	6.290740e+001	-1.317649e-002	-2.920943e+001
375294375	-5.463383e-001	-1.213751e+002	-3.709515e+001	6.265395e+001	-3.734971e+001	5.984283e+001	-1.302243e-002	-3.023197e+001
387794188	-5.716911e-001	-1.609733e+002	-3.674986e+001	6.112598e+001	-3.752864e+001	5.882344e+001	-1.568544e-002	-3.125033e+001
400294000	-5.918338e-001	1.599082e+002	-3.645813e+001	5.942645e+001	-3.758426e+001	6.120351e+001	-1.525748e-002	-3.225194e+001
412793813	-6.096635e-001	1.209828e+002	-3.628379e+001	5.802479e+001	-3.691389e+001	6.394423e+001	-1.368428e-002	-3.325486e+001
425293625	-6.181986e-001	8.185782e+001	-3.612200e+001	5.661203e+001	-3.604615e+001	6.253748e+001	-1.661584e-002	-3.425644e+001
437793438	-6.146647e-001	4.210252e+001	-3.600793e+001	5.590123e+001	-3.564138e+001	5.827635e+001	-1.695275e-002	-3.526514e+001
450293250	-6.133250e-001	1.734314e+000	-3.583391e+001	5.586077e+001	-3.569466e+001	5.594040e+001	-1.750023e-002	-3.628764e+001
462793063	-6.117851e-001	-3.915174e+001	-3.554157e+001	5.589705e+001	-3.555642e+001	5.591169e+001	-1.860909e-002	-3.727809e+001
475292875	-6.260069e-001	-8.015742e+001	-3.511990e+001	5.527973e+001	-3.518796e+001	5.442797e+001	-1.617901e-002	-3.827479e+001
487792688	-6.396157e-001	-1.208132e+002	-3.471407e+001	5.345711e+001	-3.514562e+001	5.204185e+001	-1.666813e-002	-3.930997e+001
500292500	-6.575211e-001	-1.608845e+002	-3.448157e+001	5.077553e+001	-3.530890e+001	5.210316e+001	-1.681903e-002	-4.031176e+001
512792313	-6.829418e-001	1.596061e+002	-3.441516e+001	4.854310e+001	-3.510516e+001	5.433109e+001	-1.602150e-002	-4.131107e+001
525292125	-6.938161e-001	1.204171e+002	-3.448984e+001	4.709352e+001	-3.442730e+001	5.412355e+001	-1.786601e-002	-4.231561e+001
537791938	-6.964878e-001	8.117178e+001	-3.454561e+001	4.710441e+001	-3.398610e+001	5.125741e+001	-1.962893e-002	-4.331905e+001
550291750	-6.913215e-001	4.152044e+001	-3.441646e+001	4.804486e+001	-3.394807e+001	4.896290e+001	-2.197735e-002	-4.432945e+001
562791563	-6.872883e-001	1.306397e+000	-3.409708e+001	4.845897e+001	-3.390343e+001	4.807756e+001	-1.828043e-002	-4.537411e+001
575291375	-6.869455e-001	-3.932065e+001	-3.373099e+001	4.753488e+001	-3.370176e+001	4.756383e+001	-2.226320e-002	-4.635657e+001
587791188	-6.946993e-001	-7.993098e+001	-3.342759e+001	4.585765e+001	-3.350890e+001	4.625589e+001	-2.030960e-002	-4.735947e+001
600291000	-7.099984e-001	-1.201919e+002	-3.326631e+001	4.400359e+001	-3.342633e+001	4.509558e+001	-2.271825e-002	-4.838732e+001
612790813	-7.341980e-001	-1.598473e+002	-3.320614e+001	4.276423e+001	-3.340921e+001	4.437700e+001	-2.107373e-002	-4.938897e+001
625290625	-7.523634e-001	1.610508e+002	-3.316088e+001	4.224387e+001	-3.328587e+001	4.491457e+001	-2.210716e-002	-5.038884e+001
637790438	-7.641926e-001	1.221977e+002	-3.302272e+001	4.183802e+001	-3.297092e+001	4.545099e+001	-2.268182e-002	-5.139505e+001
650290250	-7.678816e-001	8.315804e+001	-3.285467e+001	4.163000e+001	-3.253138e+001	4.449068e+001	-2.388882e-002	-5.241357e+001
662790063	-7.630532e-001	4.360616e+001	-3.262743e+001	4.104268e+001	-3.222803e+001	4.214338e+001	-2.208214e-002	-5.341921e+001
675289875	-7.630205e-001	3.260508e+000	-3.242725e+001	4.021991e+001	-3.217310e+001	3.998006e+001	-2.261015e-002	-5.442867e+001
687789688	-7.670628e-001	-3.763559e+001	-3.217760e+001	3.942717e+001	-3.213489e+001	3.916020e+001	-2.412090e-002	-5.545033e+001
700289500	-7.798627e-001	-7.868118e+001	-3.195331e+001	3.824443e+001	-3.198699e+001	3.848926e+001	-2.433783e-002	-5.646028e+001
712789313	-7.966898e-001	-1.193481e+002	-3.177090e+001	3.655224e+001	-3.189018e+001	3.736415e+001	-2.544343e-002	-5.748060e+001
725289125	-8.154867e-001	-1.592688e+002	-3.168048e+001	3.500316e+001	-3.183173e+001	3.672061e+001	-2.862274e-002	-5.848584e+001
737788938	-8.310513e-001	1.615186e+002	-3.167999e+001	3.379833e+001	-3.168110e+001	3.668419e+001	-2.730661e-002	-5.950293e+001
750288750	-8.335616e-001	1.227133e+002	-3.164940e+001	3.336538e+001	-3.140484e+001	3.635739e+001	-2.631886e-002	-6.050973e+001
762788563	-8.395544e-001	8.388168e+001	-3.156007e+001	3.350576e+001	-3.116289e+001	3.505616e+001	-3.307949e-002	-6.152679e+001
775288375	-8.306952e-001	4.440566e+001	-3.132376e+001	3.339432e+001	-3.095184e+001	3.380232e+001	-3.216329e-002	-6.254294e+001
787788188	-8.302835e-001	4.057051e+000	-3.106487e+001	3.252583e+001	-3.080456e+001	3.214144e+001	-3.194045e-002	-6.353992e+001
800288000	-8.391753e-001	-3.704934e+001	-3.081444e+001	3.102485e+001	-3.074904e+001	3.083849e+001	-3.506536e-002	-6.453541e+001
812787813	-8.600565e-001	-7.842608e+001	-3.073306e+001	2.937815e+001	-3.069487e+001	3.059361e+001	-3.641849e-002	-6.556896e+001
825287625	-8.808587e-001	-1.194877e+002	-3.070515e+001	2.814705e+001	-3.043766e+001	2.984226e+001	-4.114758e-002	-6.656910e+001
837787438	-8.910465e-001	-1.597231e+002	-3.066405e+001	2.762119e+001	-3.024537e+001	2.747185e+001	-3.679574e-002	-6.757566e+001
850287250	-8.977868e-001	1.609985e+002	-3.055287e+001	2.747230e+001	-3.039332e+001	2.571960e+001	-3.983581e-002	-6.859888e+001
862787063	-8.935412e-001	1.223862e+002	-3.036283e+001	2.709641e+001	-3.050785e+001	2.645642e+001	-4.185178e-002	-6.960691e+001
875286875	-8.825335e-001	8.391028e+001	-3.016731e+001	2.617622e+001	-3.025918e+001	2.778494e+001	-4.358214e-002	-7.061528e+001
887786688	-8.821169e-001	4.507910e+001	-3.002104e+001	2.520338e+001	-2.978171e+001	2.685292e+001	-4.615012e-002	-7.164183e+001
900286500	-8.843167e-001	5.337436e+000	-2.988672e+001	2.416733e+001	-2.953545e+001	2.422504e+001	-4.558086e-002	-7.264356e+001
912786313	-9.052006e-001	-3.529362e+001	-2.976067e+001	2.337625e+001	-2.957872e+001	2.234861e+001	-4.702328e-002	-7.363433e+001
925286125	-9.322541e-001	-7.645200e+001	-2.961462e+001	2.264045e+001	-2.958181e+001	2.192978e+001	-5.107951e-002	-7.465073e+001
937785938	-9.569050e-001	-1.176040e+002	-2.945669e+001	2.164759e+001	-2.939054e+001	2.164971e+001	-5.399900e-002	-7.567864e+001
950285750	-9.725461e-001	-1.580877e+002	-2.931123e+001	2.059898e+001	-2.914390e+001	2.024529e+001	-5.055023e-002	-7.668932e+001
962785563	-9.717434e-001	1.621941e+002	-2.919537e+001	1.953575e+001	-2.911346e+001	1.824449e+001	-5.466124e-002	-7.769173e+001
975285375	-9.646412e-001	1.231738e+002	-2.907178e+001	1.863819e+001	-2.922968e+001	1.748100e+001	-5.381226e-002	-7.872813e+001
987785188	-9.537310e-001	8.436635e+001	-2.892952e+001	1.772648e+001	-2.918307e+001	1.844984e+001	-5.161625e-002	-7.973521e+001
1000285000	-9.441641e-001	4.517173e+001	-2.878572e+001	1.666073e+001	-2.877865e+001	1.851430e+001	-5.770722e-002	-8.073216e+001
1012784813	-9.525843e-001	5.190076e+000	-2.867070e+001	1.530026e+001	-2.843627e+001	1.616695e+001	-5.697691e-002	-8.175382e+001
1025284625	-9.752146e-001	-3.566361e+001	-2.861279e+001	1.408933e+001	-2.847015e+001	1.358553e+001	-5.727386e-002	-8.279144e+001
1037784438	-1.002146e+000	-7.706370e+001	-2.858262e+001	1.332248e+001	-2.854226e+001	1.364147e+001	-6.095357e-002	-8.378881e+001
1050284250	-1.021954e+000	-1.183802e+002	-2.848077e+001	1.301176e+001	-2.821145e+001	1.329165e+001	-6.111955e-002	-8.482430e+001
1062784063	-1.034253e+000	-1.589480e+002	-2.831058e+001	1.259940e+001	-2.798643e+001	9.977125e+000	-6.245711e-002	-8.582765e+001
1075283875	-1.026108e+000	1.614716e+002	-2.807527e+001	1.162512e+001	-2.829545e+001	7.420564e+000	-5.828183e-002	-8.685450e+001
1087783688	-1.010404e+000	1.227369e+002	-2.787481e+001	9.889238e+000	-2.864635e+001	8.826522e+000	-6.043179e-002	-8.789735e+001
1100283500	-9.962203e-001	8.430488e+001	-2.779838e+001	8.054320e+000	-2.836278e+001	1.167632e+001	-6.110406e-002	-8.887489e+001
1112783313	-9.913385e-001	4.554598e+001	-2.779605e+001	6.378441e+000	-2.771787e+001	1.087328e+001	-6.567833e-002	-8.989815e+001
1125283125	-1.009886e+000	5.965924e+000	-2.784347e+001	5.532189e+000	-2.742673e+001	7.256726e+000	-6.795216e-002	-9.092192e+001
1137782938	-1.038032e+000	-3.468884e+001	-2.783297e+001	5.388347e+000	-2.757092e+001	4.719178e+000	-6.946464e-002	-9.196924e+001
1150282750	-1.069760e+000	-7.610210e+001	-2.768499e+001	5.305566e+000	-2.766067e+001	4.751215e+000	-6.678928e-002	-9.296097e+001
1162782563	-1.093911e+000	-1.176018e+002	-2.746060e+001	4.750491e+000	-2.740976e+001	4.580491e+000	-6.625215e-002	-9.397719e+001
1175282375	-1.099881e+000	-1.584885e+002	-2.722244e+001	3.437051e+000	-2.716864e+001	2.302999e+000	-7.027726e-002	-9.500901e+001
1187782188	-1.094017e+000	1.616264e+002	-2.705886e+001	1.700954e+000	-2.729264e+001	-5.140290e-001	-7.158597e-002	-9.605262e+001
1200282000	-1.074381e+000	1.227234e+002	-2.695734e+001	-2.792559e-001	-2.765485e+001	-7.764325e-001	-7.306960e-002	-9.705511e+001
1212781813	-1.055856e+000	8.425732e+001	-2.694481e+001	-2.104927e+000	-2.766563e+001	1.909193e+000	-7.422829e-002	-9.809177e+001
1225281625	-1.046874e+000	4.558966e+001	-2.700837e+001	-3.617755e+000	-2.706366e+001	3.163841e+000	-7.621064e-002	-9.909544e+001
1237781438	-1.062708e+000	6.112264e+000	-2.711429e+001	-4.141883e+000	-2.651211e+001	-1.439417e-002	-7.735657e-002	-1.001244e+002
1250281250	-1.095787e+000	-3.445352e+001	-2.711637e+001	-3.955637e+000	-2.658497e+001	-4.049536e+000	-7.656161e-002	-1.011318e+002
1262781063	-1.132804e+000	-7.582451e+001	-2.689918e+001	-3.517409e+000	-2.682301e+001	-4.328449e+000	-7.856166e-002	-1.021372e+002
1275280875	-1.160067e+000	-1.173909e+002	-2.654475e+001	-4.386849e+000	-2.651845e+001	-4.233558e+000	-7.674431e-002	-1.031886e+002
1287780688	-1.163050e+000	-1.583415e+002	-2.622757e+001	-7.013594e+000	-2.632862e+001	-7.894527e+000	-8.042718e-002	-1.041932e+002
1300280500	-1.150003e+000	1.617764e+002	-2.617116e+001	-1.058532e+001	-2.683144e+001	-1.063560e+001	-7.988623e-002	-1.051935e+002
1312780313	-1.126124e+000	1.229220e+002	-2.640750e+001	-1.360560e+001	-2.733508e+001	-7.606152e+000	-7.646347e-002	-1.062059e+002
1325280125	-1.106536e+000	8.463108e+001	-2.681065e+001	-1.481691e+001	-2.682799e+001	-2.913799e+000	-7.555052e-002	-1.072640e+002
1337779938	-1.098866e+000	4.617366e+001	-2.715980e+001	-1.365182e+001	-2.581701e+001	-4.463179e+000	-8.022475e-002	-1.082821e+002
1350279750	-1.121660e+000	6.891105e+000	-2.714864e+001	-1.123219e+001	-2.547769e+001	-1.056910e+001	-8.209757e-002	-1.093107e+002
1362779563	-1.158036e+000	-3.361241e+001	-2.676268e+001	-9.837298e+000	-2.591996e+001	-1.436638e+001	-7.795420e-002	-1.102919e+002
1375279375	-1.199944e+000	-7.514272e+001	-2.628413e+001	-1.089412e+001	-2.618714e+001	-1.335670e+001	-8.090957e-002	-1.113836e+002
1387779188	-1.232828e+000	-1.170150e+002	-2.597773e+001	-1.371146e+001	-2.591049e+001	-1.352569e+001	-8.269327e-002	-1.123852e+002
1400279000	-1.240954e+000	-1.583595e+002	-2.599191e+001	-1.681981e+001	-2.588519e+001	-1.619144e+001	-8.255091e-002	-1.134024e+002
1412778813	-1.218946e+000	1.614663e+002	-2.622608e+001	-1.902262e+001	-2.623710e+001	-1.694846e+001	-8.258858e-002	-1.144399e+002
1425278625	-1.186923e+000	1.225234e+002	-2.652403e+001	-1.949038e+001	-2.632621e+001	-1.405613e+001	-8.387787e-002	-1.154483e+002
1437778438	-1.155349e+000	8.439906e+001	-2.672189e+001	-1.831826e+001	-2.571122e+001	-1.230728e+001	-8.331139e-002	-1.164889e+002
1450278250	-1.146198e+000	4.636326e+001	-2.665846e+001	-1.652773e+001	-2.504079e+001	-1.537572e+001	-8.726640e-002	-1.175401e+002
1462778063	-1.159342e+000	7.603297e+000	-2.634189e+001	-1.540386e+001	-2.498782e+001	-2.037438e+001	-8.847043e-002	-1.185727e+002
1475277875	-1.202134e+000	-3.237266e+001	-2.590315e+001	-1.563799e+001	-2.541024e+001	-2.262857e+001	-9.113871e-002	-1.195892e+002
1487777688	-1.256989e+000	-7.361337e+001	-2.550343e+001	-1.756367e+001	-2.556263e+001	-2.161519e+001	-9.101176e-002	-1.206057e+002
1500277500	-1.293824e+000	-1.155402e+002	-2.530316e+001	-2.036151e+001	-2.538650e+001	-2.189868e+001	-9.279558e-002	-1.216482e+002
1512777313	-1.309903e+000	-1.572741e+002	-2.533950e+001	-2.333011e+001	-2.541296e+001	-2.321684e+001	-9.527427e-002	-1.226934e+002
1525277125	-1.294678e+000	1.619864e+002	-2.556772e+001	-2.510588e+001	-2.548932e+001	-2.209939e+001	-9.468048e-002	-1.237093e+002
1537776938	-1.259018e+000	1.224902e+002	-2.582384e+001	-2.526743e+001	-2.499435e+001	-2.052729e+001	-9.681370e-002	-1.247474e+002
1550276750	-1.228740e+000	8.389914e+001	-2.592288e+001	-2.388075e+001	-2.430154e+001	-2.361699e+001	-9.863411e-002	-1.258048e+002
1562776563	-1.213027e+000	4.550100e+001	-2.571919e+001	-2.235316e+001	-2.429379e+001	-2.943489e+001	-1.002280e-001	-1.268144e+002
1575276375	-1.221832e+000	6.494145e+000	-2.531215e+001	-2.215559e+001	-2.488365e+001	-3.195056e+001	-1.010236e-001	-1.278423e+002
1587776188	-1.270276e+000	-3.372427e+001	-2.491765e+001	-2.376605e+001	-2.515296e+001	-3.003316e+001	-9.525394e-002	-1.288632e+002
1600276000	-1.328012e+000	-7.524220e+001	-2.472759e+001	-2.654238e+001	-2.493490e+001	-2.932888e+001	-1.025876e-001	-1.299160e+002
1612775813	-1.377503e+000	-1.175375e+002	-2.479765e+001	-2.891766e+001	-2.480914e+001	-3.004642e+001	-1.022123e-001	-1.309312e+002
1625275625	-1.387445e+000	-1.596413e+002	-2.499374e+001	-2.982448e+001	-2.464991e+001	-2.955041e+001	-1.096083e-001	-1.319840e+002
1637775438	-1.357977e+000	1.594154e+002	-2.506826e+001	-2.896230e+001	-2.409660e+001	-3.060435e+001	-1.076781e-001	-1.330109e+002
1650275250	-1.308854e+000	1.199089e+002	-2.484879e+001	-2.785977e+001	-2.382090e+001	-3.569292e+001	-1.077433e-001	-1.340382e+002
1662775063	-1.262901e+000	8.155587e+001	-2.443636e+001	-2.811379e+001	-2.427485e+001	-3.992289e+001	-1.083350e-001	-1.350569e+002
1675274875	-1.237531e+000	4.365214e+001	-2.406337e+001	-3.006531e+001	-2.489255e+001	-3.922298e+001	-1.079099e-001	-1.361072e+002
1687774688	-1.251812e+000	5.346225e+000	-2.385116e+001	-3.280190e+001	-2.486001e+001	-3.614420e+001	-1.087291e-001	-1.371347e+002
1700274500	-1.293374e+000	-3.402712e+001	-2.385096e+001	-3.561730e+001	-2.442098e+001	-3.594161e+001	-1.118151e-001	-1.381693e+002
1712774313	-1.359841e+000	-7.477635e+001	-2.398843e+001	-3.734613e+001	-2.421122e+001	-3.789102e+001	-1.120642e-001	-1.392077e+002
1725274125	-1.416987e+000	-1.164872e+002	-2.410501e+001	-3.788474e+001	-2.420478e+001	-3.880009e+001	-1.175569e-001	-1.402481e+002
1737773938	-1.438068e+000	-1.583190e+002	-2.407364e+001	-3.780818e+001	-2.401279e+001	-3.898712e+001	-1.187411e-001	-1.412815e+002
1750273750	-1.421393e+000	1.606944e+002	-2.392416e+001	-3.806593e+001	-2.367634e+001	-4.101895e+001	-1.148099e-001	-1.423263e+002
1762773563	-1.373038e+000	1.210007e+002	-2.371801e+001	-3.900297e+001	-2.361965e+001	-4.464385e+001	-1.160719e-001	-1.433632e+002
1775273375	-1.322029e+000	8.253684e+001	-2.356057e+001	-4.041224e+001	-2.397382e+001	-4.734530e+001	-1.209784e-001	-1.444207e+002
1787773188	-1.293014e+000	4.456359e+001	-2.344440e+001	-4.208364e+001	-2.443154e+001	-4.676266e+001	-1.214399e-001	-1.454519e+002
1800273000	-1.301190e+000	6.365453e+000	-2.340267e+001	-4.375584e+001	-2.439051e+001	-4.376039e+001	-1.228210e-001	-1.464967e+002
1812772813	-1.343499e+000	-3.284080e+001	-2.341185e+001	-4.515991e+001	-2.385954e+001	-4.319931e+001	-1.190085e-001	-1.475254e+002
1825272625	-1.412328e+000	-7.344659e+001	-2.345568e+001	-4.602848e+001	-2.353565e+001	-4.591063e+001	-1.254716e-001	-1.485698e+002
1837772438	-1.476088e+000	-1.151912e+002	-2.343289e+001	-4.625983e+001	-2.362412e+001	-4.763094e+001	-1.312912e-001	-1.496066e+002
1850272250	-1.509373e+000	-1.572613e+002	-2.325193e+001	-4.637456e+001	-2.342455e+001	-4.705418e+001	-1.280510e-001	-1.506555e+002
1862772063	-1.496571e+000	1.612687e+002	-2.295281e+001	-4.727949e+001	-2.288944e+001	-5.001612e+001	-1.293098e-001	-1.516699e+002
1875271875	-1.445399e+000	1.210684e+002	-2.266488e+001	-4.957857e+001	-2.303257e+001	-5.595494e+001	-1.314029e-001	-1.527355e+002
1887771688	-1.390139e+000	8.204323e+001	-2.253385e+001	-5.282538e+001	-2.387319e+001	-5.780396e+001	-1.324310e-001	-1.537701e+002
