!Agilent Technologies,E5071C,MY46215201,A.10.06
!Date: Mon Nov 18 15:37:31 2019
!Data & Calibration Information:
!Freq	S11:SOLT2(ON)	S21:SOLT2(ON)	S12:SOLT2(ON)	S22:SOLT2(ON)
!PortZ  Port1:50+j0    Port2:50+j0
!Above PortZ is port z conversion or system Z0 setting when saving the data.
!When reading, reference impedance value at option line is always used.
# Hz S dB R 50
300000	-2.797087e-003	-8.233721e-001	-8.032800e+001	1.646683e+002	-8.112771e+001	1.455898e+002	-4.017347e-003	7.156435e-002
12799813	-9.640055e-003	-4.340576e+001	-6.536041e+001	9.114603e+001	-6.518311e+001	8.326466e+001	2.154388e-004	-1.339821e+000
25299625	-5.483827e-002	-8.559851e+001	-5.953895e+001	8.262194e+001	-5.902154e+001	8.886594e+001	-9.895490e-004	-2.686875e+000
37799438	-1.312658e-001	-1.273929e+002	-5.654665e+001	8.207872e+001	-5.546872e+001	8.599031e+001	-5.194210e-003	-3.981202e+000
50299250	-2.102106e-001	-1.687412e+002	-5.407589e+001	8.250613e+001	-5.284440e+001	8.062930e+001	-3.398345e-003	-5.301980e+000
62799063	-2.715119e-001	1.500785e+002	-5.173099e+001	8.318996e+001	-5.123320e+001	7.513398e+001	-7.114926e-003	-6.591014e+000
75298875	-3.169756e-001	1.088322e+002	-4.983990e+001	8.045157e+001	-5.037838e+001	7.506481e+001	-8.789990e-003	-7.919540e+000
87798688	-3.317502e-001	6.720086e+001	-4.842946e+001	7.863864e+001	-4.893719e+001	7.859196e+001	-1.390702e-002	-9.236129e+000
100298500	-3.235560e-001	2.523947e+001	-4.724258e+001	7.544495e+001	-4.741945e+001	7.570687e+001	-9.331354e-003	-1.053126e+001
112798313	-3.027807e-001	-1.699849e+001	-4.639851e+001	7.230425e+001	-4.631759e+001	7.240315e+001	-1.162028e-002	-1.183054e+001
125298125	-3.002393e-001	-5.915149e+001	-4.570525e+001	6.989031e+001	-4.554295e+001	7.090519e+001	-9.262077e-003	-1.315100e+001
137797938	-3.171517e-001	-1.009942e+002	-4.505775e+001	7.006068e+001	-4.437364e+001	7.051940e+001	-1.292583e-002	-1.446286e+001
150297750	-3.620751e-001	-1.422651e+002	-4.423759e+001	7.048768e+001	-4.328553e+001	6.438654e+001	-1.552403e-002	-1.577181e+001
162797563	-4.098297e-001	1.768569e+002	-4.325039e+001	6.989481e+001	-4.333940e+001	5.855598e+001	-1.358927e-002	-1.708078e+001
175297375	-4.448134e-001	1.360240e+002	-4.224665e+001	6.721406e+001	-4.361279e+001	6.048777e+001	-1.505572e-002	-1.838230e+001
187797188	-4.691982e-001	9.486662e+001	-4.139152e+001	6.379118e+001	-4.270441e+001	6.560150e+001	-1.677380e-002	-1.969755e+001
200297000	-4.737689e-001	5.312089e+001	-4.086208e+001	5.980864e+001	-4.117742e+001	6.357830e+001	-1.843295e-002	-2.100250e+001
212796813	-4.675527e-001	1.083351e+001	-4.054935e+001	5.594574e+001	-4.049091e+001	5.697066e+001	-1.837738e-002	-2.231545e+001
225296625	-4.602292e-001	-3.178562e+001	-4.036994e+001	5.416791e+001	-4.046876e+001	5.371899e+001	-2.302501e-002	-2.363650e+001
237796438	-4.680916e-001	-7.426195e+001	-4.008462e+001	5.321323e+001	-3.990022e+001	5.339550e+001	-2.284540e-002	-2.494380e+001
250296250	-4.913941e-001	-1.161829e+002	-3.958473e+001	5.300433e+001	-3.931279e+001	4.907256e+001	-2.493419e-002	-2.625336e+001
262796063	-5.209374e-001	-1.574506e+002	-3.889956e+001	5.197868e+001	-3.937862e+001	4.436252e+001	-2.741447e-002	-2.755934e+001
275295875	-5.541122e-001	1.617179e+002	-3.827505e+001	4.865050e+001	-3.974289e+001	4.551221e+001	-2.568224e-002	-2.888874e+001
287795688	-5.818407e-001	1.210310e+002	-3.783572e+001	4.511091e+001	-3.920438e+001	4.940778e+001	-2.799804e-002	-3.019365e+001
300295500	-5.986489e-001	7.997403e+001	-3.760176e+001	4.132822e+001	-3.803972e+001	4.813944e+001	-2.971452e-002	-3.150826e+001
312795313	-6.000602e-001	3.830775e+001	-3.752461e+001	3.854836e+001	-3.732708e+001	4.225032e+001	-3.162416e-002	-3.283001e+001
325295125	-5.993034e-001	-3.992814e+000	-3.747551e+001	3.672603e+001	-3.732392e+001	3.763866e+001	-3.293353e-002	-3.415099e+001
337794938	-6.029207e-001	-4.659780e+001	-3.730057e+001	3.597615e+001	-3.731422e+001	3.662543e+001	-3.697115e-002	-3.543726e+001
350294750	-6.124983e-001	-8.899042e+001	-3.698691e+001	3.520318e+001	-3.696778e+001	3.529710e+001	-3.535237e-002	-3.676315e+001
362794563	-6.389960e-001	-1.308273e+002	-3.659748e+001	3.378846e+001	-3.669804e+001	3.221186e+001	-3.936773e-002	-3.807771e+001
375294375	-6.676055e-001	-1.720144e+002	-3.623688e+001	3.166515e+001	-3.677525e+001	2.961900e+001	-4.130471e-002	-3.940047e+001
387794188	-6.960441e-001	1.472856e+002	-3.593050e+001	2.927775e+001	-3.684566e+001	3.000449e+001	-4.535212e-002	-4.072132e+001
400294000	-7.133419e-001	1.065691e+002	-3.564297e+001	2.676508e+001	-3.639757e+001	3.187691e+001	-4.718854e-002	-4.204117e+001
412793813	-7.282967e-001	6.545469e+001	-3.546674e+001	2.402739e+001	-3.548823e+001	2.998031e+001	-4.571740e-002	-4.335286e+001
425293625	-7.354957e-001	2.364566e+001	-3.534855e+001	2.144544e+001	-3.500761e+001	2.438266e+001	-5.021314e-002	-4.466608e+001
437793438	-7.377464e-001	-1.884746e+001	-3.529965e+001	1.948987e+001	-3.518448e+001	1.968524e+001	-5.080965e-002	-4.598334e+001
450293250	-7.509753e-001	-6.166382e+001	-3.519704e+001	1.799822e+001	-3.533957e+001	1.874030e+001	-5.362080e-002	-4.732009e+001
462793063	-7.619514e-001	-1.042475e+002	-3.502168e+001	1.700547e+001	-3.504903e+001	1.793354e+001	-5.558365e-002	-4.862072e+001
475292875	-7.909586e-001	-1.462231e+002	-3.472590e+001	1.540021e+001	-3.488284e+001	1.471409e+001	-5.499341e-002	-4.993055e+001
487792688	-8.144697e-001	1.725224e+002	-3.442106e+001	1.289933e+001	-3.503919e+001	1.349591e+001	-5.677887e-002	-5.127661e+001
500292500	-8.312711e-001	1.317131e+002	-3.427186e+001	9.843353e+000	-3.489370e+001	1.439734e+001	-5.896797e-002	-5.259387e+001
512792313	-8.484024e-001	9.097458e+001	-3.426305e+001	6.930072e+000	-3.427039e+001	1.350737e+001	-6.075465e-002	-5.390301e+001
525292125	-8.540692e-001	4.986841e+001	-3.433099e+001	4.697493e+000	-3.385737e+001	9.036491e+000	-6.222160e-002	-5.522715e+001
537791938	-8.557350e-001	8.205934e+000	-3.440058e+001	3.754718e+000	-3.395305e+001	5.193116e+000	-6.606226e-002	-5.653931e+001
550291750	-8.630463e-001	-3.396602e+001	-3.427885e+001	3.433626e+000	-3.408691e+001	3.678242e+000	-6.994060e-002	-5.786493e+001
562791563	-8.735210e-001	-7.628152e+001	-3.406063e+001	2.392403e+000	-3.396000e+001	2.953000e+000	-6.940061e-002	-5.923984e+001
575291375	-9.013435e-001	-1.182782e+002	-3.382397e+001	4.590038e-001	-3.379424e+001	9.998285e-001	-7.415837e-002	-6.053241e+001
587791188	-9.278287e-001	-1.596550e+002	-3.363566e+001	-2.008716e+000	-3.372376e+001	-1.045551e+000	-7.412235e-002	-6.184878e+001
600291000	-9.550437e-001	1.594927e+002	-3.358164e+001	-4.096686e+000	-3.370085e+001	-2.327149e+000	-7.786368e-002	-6.319764e+001
612790813	-9.706412e-001	1.188514e+002	-3.352854e+001	-5.867759e+000	-3.354497e+001	-3.162688e+000	-7.744334e-002	-6.452460e+001
625290625	-9.813225e-001	7.796075e+001	-3.343618e+001	-7.547834e+000	-3.325133e+001	-4.410881e+000	-8.133132e-002	-6.584405e+001
637790438	-9.949145e-001	3.644120e+001	-3.330680e+001	-9.126658e+000	-3.292904e+001	-7.123602e+000	-8.398120e-002	-6.716805e+001
650290250	-1.000116e+000	-5.841281e+000	-3.316454e+001	-1.124115e+001	-3.281668e+001	-1.089016e+001	-8.652277e-002	-6.851187e+001
662790063	-1.010583e+000	-4.860152e+001	-3.310722e+001	-1.355515e+001	-3.297659e+001	-1.388277e+001	-8.587106e-002	-6.984654e+001
675289875	-1.030600e+000	-9.132508e+001	-3.305788e+001	-1.536032e+001	-3.306452e+001	-1.482050e+001	-8.974304e-002	-7.118224e+001
687789688	-1.051181e+000	-1.334937e+002	-3.304748e+001	-1.710073e+001	-3.296904e+001	-1.589892e+001	-9.470287e-002	-7.252377e+001
700289500	-1.070814e+000	-1.748485e+002	-3.295499e+001	-1.878482e+001	-3.288595e+001	-1.805097e+001	-9.426694e-002	-7.385523e+001
712789313	-1.086319e+000	1.444904e+002	-3.287894e+001	-2.061128e+001	-3.287019e+001	-1.944811e+001	-9.951510e-002	-7.519930e+001
725289125	-1.096963e+000	1.040196e+002	-3.280831e+001	-2.260928e+001	-3.271949e+001	-2.081450e+001	-1.025806e-001	-7.654282e+001
737788938	-1.107873e+000	6.319693e+001	-3.279208e+001	-2.461273e+001	-3.251616e+001	-2.293692e+001	-1.055308e-001	-7.788465e+001
750288750	-1.114096e+000	2.153481e+001	-3.275098e+001	-2.637451e+001	-3.242150e+001	-2.555958e+001	-1.049404e-001	-7.922232e+001
762788563	-1.128554e+000	-2.089673e+001	-3.271708e+001	-2.826887e+001	-3.243944e+001	-2.809073e+001	-1.143686e-001	-8.056904e+001
775288375	-1.146300e+000	-6.383102e+001	-3.267427e+001	-3.010174e+001	-3.248546e+001	-3.020463e+001	-1.153649e-001	-8.190603e+001
787788188	-1.164299e+000	-1.065701e+002	-3.264686e+001	-3.232957e+001	-3.255259e+001	-3.200603e+001	-1.175221e-001	-8.324913e+001
800288000	-1.181464e+000	-1.485259e+002	-3.269513e+001	-3.444257e+001	-3.254577e+001	-3.305105e+001	-1.228271e-001	-8.456785e+001
812787813	-1.191715e+000	1.705298e+002	-3.279351e+001	-3.585376e+001	-3.242793e+001	-3.498861e+001	-1.259430e-001	-8.593972e+001
825287625	-1.193043e+000	1.303134e+002	-3.283821e+001	-3.674931e+001	-3.241787e+001	-3.763812e+001	-1.357163e-001	-8.726896e+001
837787438	-1.196390e+000	9.027362e+001	-3.275680e+001	-3.750787e+001	-3.261616e+001	-3.922204e+001	-1.320344e-001	-8.862116e+001
850287250	-1.201393e+000	4.976745e+001	-3.256691e+001	-3.860269e+001	-3.262529e+001	-3.930524e+001	-1.383649e-001	-8.997475e+001
862787063	-1.220857e+000	8.308422e+000	-3.234255e+001	-4.094291e+001	-3.228341e+001	-4.020926e+001	-1.430602e-001	-9.132606e+001
875286875	-1.252949e+000	-3.416389e+001	-3.224542e+001	-4.385091e+001	-3.204559e+001	-4.394627e+001	-1.469162e-001	-9.267731e+001
887786688	-1.283274e+000	-7.721822e+001	-3.232945e+001	-4.707199e+001	-3.219521e+001	-4.773339e+001	-1.520974e-001	-9.404267e+001
900286500	-1.315043e+000	-1.201505e+002	-3.250129e+001	-4.936830e+001	-3.249624e+001	-4.942370e+001	-1.535745e-001	-9.538888e+001
912786313	-1.321120e+000	-1.623331e+002	-3.264388e+001	-5.059492e+001	-3.252608e+001	-4.999261e+001	-1.575180e-001	-9.671491e+001
925286125	-1.313757e+000	1.564677e+002	-3.268366e+001	-5.165650e+001	-3.242631e+001	-5.155656e+001	-1.635492e-001	-9.807933e+001
937785938	-1.299763e+000	1.159815e+002	-3.266400e+001	-5.266070e+001	-3.241144e+001	-5.418066e+001	-1.686369e-001	-9.945042e+001
950285750	-1.284034e+000	7.561095e+001	-3.256877e+001	-5.422550e+001	-3.257375e+001	-5.630194e+001	-1.666929e-001	-1.008086e+002
962785563	-1.297834e+000	3.483911e+001	-3.248764e+001	-5.624823e+001	-3.268791e+001	-5.722768e+001	-1.734609e-001	-1.021679e+002
975285375	-1.322754e+000	-6.811038e+000	-3.240808e+001	-5.886148e+001	-3.257841e+001	-5.798639e+001	-1.756431e-001	-1.035523e+002
987785188	-1.352730e+000	-4.927873e+001	-3.244781e+001	-6.156068e+001	-3.236999e+001	-6.070647e+001	-1.751819e-001	-1.049063e+002
1000285000	-1.384431e+000	-9.204480e+001	-3.258707e+001	-6.428895e+001	-3.250054e+001	-6.455476e+001	-1.850606e-001	-1.062589e+002
1012784813	-1.400901e+000	-1.344227e+002	-3.282199e+001	-6.651449e+001	-3.286475e+001	-6.632414e+001	-1.860529e-001	-1.076260e+002
1025284625	-1.392209e+000	-1.759244e+002	-3.307077e+001	-6.775981e+001	-3.295378e+001	-6.643708e+001	-1.891999e-001	-1.090303e+002
1037784438	-1.377966e+000	1.435373e+002	-3.322570e+001	-6.803812e+001	-3.283376e+001	-6.835627e+001	-1.934486e-001	-1.103702e+002
1050284250	-1.365259e+000	1.035436e+002	-3.316264e+001	-6.826213e+001	-3.299025e+001	-7.160556e+001	-1.960176e-001	-1.117674e+002
1062784063	-1.362309e+000	6.349023e+001	-3.297764e+001	-6.942100e+001	-3.336111e+001	-7.229568e+001	-2.010867e-001	-1.131325e+002
1075283875	-1.382520e+000	2.272449e+001	-3.278827e+001	-7.189030e+001	-3.332416e+001	-7.105411e+001	-1.990201e-001	-1.145231e+002
1087783688	-1.420544e+000	-1.916414e+001	-3.270309e+001	-7.575441e+001	-3.283858e+001	-7.279997e+001	-2.041218e-001	-1.159307e+002
1100283500	-1.462097e+000	-6.196001e+001	-3.287819e+001	-7.958590e+001	-3.274278e+001	-7.824054e+001	-2.048009e-001	-1.172761e+002
1112783313	-1.489732e+000	-1.050573e+002	-3.327330e+001	-8.251099e+001	-3.327782e+001	-8.232734e+001	-2.129265e-001	-1.186599e+002
1125283125	-1.487600e+000	-1.476298e+002	-3.368720e+001	-8.391744e+001	-3.373147e+001	-8.243818e+001	-2.151616e-001	-1.200519e+002
1137782938	-1.475088e+000	1.708234e+002	-3.396251e+001	-8.403373e+001	-3.374353e+001	-8.226165e+001	-2.212432e-001	-1.214709e+002
1150282750	-1.450125e+000	1.303285e+002	-3.402622e+001	-8.422566e+001	-3.366877e+001	-8.447646e+001	-2.207009e-001	-1.228418e+002
1162782563	-1.435808e+000	9.047381e+001	-3.395710e+001	-8.492191e+001	-3.387772e+001	-8.718662e+001	-2.224957e-001	-1.242306e+002
1175282375	-1.435858e+000	5.043777e+001	-3.381851e+001	-8.680290e+001	-3.420553e+001	-8.841732e+001	-2.307822e-001	-1.256338e+002
1187782188	-1.458851e+000	9.622930e+000	-3.376907e+001	-8.989597e+001	-3.432684e+001	-8.793651e+001	-2.347420e-001	-1.270546e+002
1200282000	-1.503370e+000	-3.233842e+001	-3.386689e+001	-9.345773e+001	-3.402095e+001	-8.907381e+001	-2.385018e-001	-1.284413e+002
1212781813	-1.544814e+000	-7.518890e+001	-3.416566e+001	-9.692460e+001	-3.386020e+001	-9.393865e+001	-2.419527e-001	-1.298471e+002
1225281625	-1.575979e+000	-1.182182e+002	-3.469281e+001	-9.945363e+001	-3.440301e+001	-9.897682e+001	-2.450523e-001	-1.312503e+002
1237781438	-1.571834e+000	-1.606124e+002	-3.516458e+001	-1.001878e+002	-3.510624e+001	-9.939614e+001	-2.488845e-001	-1.326603e+002
1250281250	-1.545521e+000	1.581351e+002	-3.546984e+001	-1.000243e+002	-3.524482e+001	-9.790710e+001	-2.502794e-001	-1.340479e+002
1262781063	-1.515350e+000	1.178640e+002	-3.549525e+001	-9.988439e+001	-3.511961e+001	-1.001367e+002	-2.536471e-001	-1.354546e+002
1275280875	-1.498349e+000	7.806031e+001	-3.539099e+001	-1.014103e+002	-3.548073e+001	-1.031800e+002	-2.554858e-001	-1.368976e+002
1287780688	-1.506390e+000	3.789524e+001	-3.537309e+001	-1.049146e+002	-3.596016e+001	-1.026845e+002	-2.612488e-001	-1.383009e+002
1300280500	-1.541776e+000	-3.235291e+000	-3.563678e+001	-1.090027e+002	-3.567261e+001	-1.015626e+002	-2.622227e-001	-1.397069e+002
1312780313	-1.591586e+000	-4.559608e+001	-3.619097e+001	-1.127365e+002	-3.521790e+001	-1.065355e+002	-2.630640e-001	-1.411340e+002
1325280125	-1.635946e+000	-8.881153e+001	-3.693870e+001	-1.140949e+002	-3.578511e+001	-1.141888e+002	-2.662018e-001	-1.425942e+002
1337779938	-1.659289e+000	-1.319990e+002	-3.754804e+001	-1.134104e+002	-3.701540e+001	-1.157874e+002	-2.730494e-001	-1.440114e+002
1350279750	-1.639928e+000	-1.742733e+002	-3.780227e+001	-1.122693e+002	-3.755312e+001	-1.123178e+002	-2.783219e-001	-1.454455e+002
1362779563	-1.601667e+000	1.447399e+002	-3.781968e+001	-1.121545e+002	-3.735005e+001	-1.120250e+002	-2.765524e-001	-1.468643e+002
1375279375	-1.563890e+000	1.048258e+002	-3.795052e+001	-1.140782e+002	-3.744091e+001	-1.153517e+002	-2.806508e-001	-1.483626e+002
1387779188	-1.551392e+000	6.525598e+001	-3.818952e+001	-1.168491e+002	-3.793429e+001	-1.176213e+002	-2.883713e-001	-1.497798e+002
1400279000	-1.567224e+000	2.520002e+001	-3.858253e+001	-1.189789e+002	-3.831325e+001	-1.173639e+002	-2.921307e-001	-1.512191e+002
1412778813	-1.614930e+000	-1.604253e+001	-3.908394e+001	-1.206546e+002	-3.823652e+001	-1.195604e+002	-2.937985e-001	-1.526659e+002
1425278625	-1.682579e+000	-5.867572e+001	-3.961879e+001	-1.219723e+002	-3.854312e+001	-1.249215e+002	-2.982350e-001	-1.541194e+002
1437778438	-1.731295e+000	-1.022823e+002	-4.010302e+001	-1.227248e+002	-3.957081e+001	-1.286360e+002	-3.010934e-001	-1.555872e+002
1450278250	-1.744767e+000	-1.457784e+002	-4.056759e+001	-1.230272e+002	-4.060169e+001	-1.275123e+002	-3.070903e-001	-1.570609e+002
1462778063	-1.715216e+000	1.717558e+002	-4.099378e+001	-1.240399e+002	-4.097400e+001	-1.250612e+002	-3.097098e-001	-1.585288e+002
1475277875	-1.662707e+000	1.307277e+002	-4.146526e+001	-1.252934e+002	-4.112989e+001	-1.263848e+002	-3.149079e-001	-1.599953e+002
1487777688	-1.614091e+000	9.084672e+001	-4.199476e+001	-1.269753e+002	-4.169706e+001	-1.293545e+002	-3.189253e-001	-1.614631e+002
1500277500	-1.599172e+000	5.133118e+001	-4.273877e+001	-1.285991e+002	-4.245098e+001	-1.311547e+002	-3.230995e-001	-1.629359e+002
1512777313	-1.613069e+000	1.133451e+001	-4.363332e+001	-1.300602e+002	-4.316012e+001	-1.317043e+002	-3.278495e-001	-1.644357e+002
1525277125	-1.670156e+000	-2.983379e+001	-4.460209e+001	-1.299592e+002	-4.398465e+001	-1.348588e+002	-3.310859e-001	-1.659024e+002
1537776938	-1.739667e+000	-7.232463e+001	-4.558688e+001	-1.299952e+002	-4.543137e+001	-1.369170e+002	-3.357329e-001	-1.674012e+002
1550276750	-1.785256e+000	-1.155897e+002	-4.663949e+001	-1.290434e+002	-4.697780e+001	-1.337443e+002	-3.401573e-001	-1.689192e+002
1562776563	-1.793347e+000	-1.586402e+002	-4.775886e+001	-1.283522e+002	-4.797469e+001	-1.288220e+002	-3.458379e-001	-1.704014e+002
1575276375	-1.760375e+000	1.594332e+002	-4.903388e+001	-1.264610e+002	-4.877364e+001	-1.282772e+002	-3.463198e-001	-1.718971e+002
1587776188	-1.709528e+000	1.188687e+002	-5.094370e+001	-1.255516e+002	-5.041539e+001	-1.280136e+002	-3.464957e-001	-1.734120e+002
1600276000	-1.667462e+000	7.928638e+001	-5.314071e+001	-1.190431e+002	-5.301064e+001	-1.234813e+002	-3.554861e-001	-1.749343e+002
1612775813	-1.667364e+000	3.985677e+001	-5.587976e+001	-1.062148e+002	-5.563872e+001	-1.118525e+002	-3.575858e-001	-1.764388e+002
1625275625	-1.707163e+000	-3.590089e-001	-5.794848e+001	-8.231762e+001	-5.786462e+001	-8.889691e+001	-3.684061e-001	-1.779801e+002
1637775438	-1.786765e+000	-4.204336e+001	-5.755014e+001	-4.793430e+001	-5.825230e+001	-5.529228e+001	-3.684981e-001	-1.795070e+002
1650275250	-1.873513e+000	-8.530821e+001	-5.487595e+001	-2.525896e+001	-5.619002e+001	-2.740946e+001	-3.731851e-001	1.789606e+002
1662775063	-1.934318e+000	-1.294239e+002	-5.189484e+001	-1.436525e+001	-5.274031e+001	-1.490624e+001	-3.766530e-001	1.774397e+002
1675274875	-1.931451e+000	-1.732589e+002	-4.967595e+001	-1.225682e+001	-5.027501e+001	-1.182392e+001	-3.791787e-001	1.758743e+002
1687774688	-1.879558e+000	1.441747e+002	-4.820465e+001	-1.172400e+001	-4.852886e+001	-1.180796e+001	-3.827857e-001	1.743360e+002
1700274500	-1.814697e+000	1.030957e+002	-4.706879e+001	-1.038191e+001	-4.731569e+001	-9.635886e+000	-3.874252e-001	1.727707e+002
1712774313	-1.770677e+000	6.298963e+001	-4.584438e+001	-7.289153e+000	-4.602294e+001	-7.798449e+000	-3.927373e-001	1.712077e+002
1725274125	-1.769807e+000	2.298508e+001	-4.462497e+001	-5.629973e+000	-4.473365e+001	-8.330289e+000	-4.007452e-001	1.696397e+002
1737773938	-1.818575e+000	-1.785805e+001	-4.327228e+001	-4.753437e+000	-4.390483e+001	-9.223014e+000	-4.041939e-001	1.680710e+002
1750273750	-1.906613e+000	-6.015615e+001	-4.198829e+001	-6.687528e+000	-4.300871e+001	-8.312452e+000	-4.071303e-001	1.664660e+002
1762773563	-1.991290e+000	-1.038334e+002	-4.099256e+001	-9.617643e+000	-4.194581e+001	-7.604367e+000	-4.107826e-001	1.648882e+002
1775273375	-2.027503e+000	-1.479923e+002	-4.024193e+001	-1.371104e+001	-4.071329e+001	-1.020533e+001	-4.174866e-001	1.632749e+002
1787773188	-2.008834e+000	1.685015e+002	-3.981628e+001	-1.703837e+001	-3.991501e+001	-1.517940e+001	-4.226242e-001	1.616734e+002
1800273000	-1.940325e+000	1.263865e+002	-3.954923e+001	-1.887314e+001	-3.977856e+001	-1.894999e+001	-4.270649e-001	1.600529e+002
1812772813	-1.872776e+000	8.574090e+001	-3.928483e+001	-1.953246e+001	-3.961211e+001	-1.857261e+001	-4.314681e-001	1.584276e+002
1825272625	-1.832561e+000	4.584497e+001	-3.886186e+001	-1.890950e+001	-3.904816e+001	-1.807969e+001	-4.374835e-001	1.568092e+002
1837772438	-1.856340e+000	5.770008e+000	-3.818273e+001	-1.862129e+001	-3.835428e+001	-2.038834e+001	-4.459001e-001	1.551749e+002
1850272250	-1.925760e+000	-3.532837e+001	-3.738282e+001	-2.004993e+001	-3.815567e+001	-2.233972e+001	-4.479509e-001	1.535179e+002
1862772063	-2.026599e+000	-7.794581e+001	-3.664845e+001	-2.376525e+001	-3.784473e+001	-2.079327e+001	-4.525839e-001	1.518621e+002
1875271875	-2.108441e+000	-1.217898e+002	-3.615309e+001	-2.853349e+001	-3.672171e+001	-2.140551e+001	-4.587372e-001	1.502088e+002
