!Agilent Technologies,E5071C,MY46215201,A.10.06
!Date: Mon Nov 18 15:36:42 2019
!Data & Calibration Information:
!Freq	S11:SOLT2(ON)	S21:SOLT2(ON)	S12:SOLT2(ON)	S22:SOLT2(ON)
!PortZ  Port1:50+j0    Port2:50+j0
!Above PortZ is port z conversion or system Z0 setting when saving the data.
!When reading, reference impedance value at option line is always used.
# Hz S dB R 50
300000	-2.422922e-004	-8.295917e-001	-6.621010e+001	-9.537651e+001	-6.843424e+001	4.968914e+001	-1.297901e-003	6.204661e-002
12799813	-1.018756e-002	-4.344030e+001	-6.461722e+001	8.231554e+001	-6.408475e+001	8.778808e+001	1.431274e-003	-1.343546e+000
25299625	-5.357715e-002	-8.565566e+001	-5.974883e+001	8.504255e+001	-5.883402e+001	8.589615e+001	2.918017e-004	-2.698307e+000
37799438	-1.297923e-001	-1.274896e+002	-5.624152e+001	8.253326e+001	-5.555981e+001	8.608117e+001	-3.949020e-003	-3.995412e+000
50299250	-2.098936e-001	-1.688534e+002	-5.405558e+001	8.439908e+001	-5.293172e+001	7.962826e+001	-1.934578e-003	-5.322208e+000
62799063	-2.698944e-001	1.499342e+002	-5.168564e+001	8.416019e+001	-5.124265e+001	7.565462e+001	-4.672826e-003	-6.619151e+000
75298875	-3.160474e-001	1.086515e+002	-4.990700e+001	8.181146e+001	-5.036210e+001	7.572178e+001	-5.872170e-003	-7.966858e+000
87798688	-3.306102e-001	6.698010e+001	-4.831303e+001	7.919899e+001	-4.896885e+001	7.842421e+001	-1.078469e-002	-9.288351e+000
100298500	-3.222089e-001	2.498673e+001	-4.719540e+001	7.531662e+001	-4.725725e+001	7.606002e+001	-6.544516e-003	-1.058476e+001
112798313	-3.016873e-001	-1.727964e+001	-4.628637e+001	7.199834e+001	-4.628545e+001	7.182196e+001	-7.405656e-003	-1.189473e+001
125298125	-2.990671e-001	-5.946394e+001	-4.558308e+001	7.088349e+001	-4.548609e+001	7.157335e+001	-5.912107e-003	-1.323238e+001
137797938	-3.159815e-001	-1.013418e+002	-4.494665e+001	7.045911e+001	-4.424634e+001	7.097089e+001	-8.985468e-003	-1.455309e+001
150297750	-3.614248e-001	-1.426388e+002	-4.412225e+001	7.034376e+001	-4.321875e+001	6.435791e+001	-1.105296e-002	-1.587140e+001
162797563	-4.081723e-001	1.764545e+002	-4.313160e+001	6.981730e+001	-4.327385e+001	5.858617e+001	-7.850703e-003	-1.718649e+001
175297375	-4.430671e-001	1.355777e+002	-4.214206e+001	6.780595e+001	-4.356865e+001	6.058905e+001	-1.096616e-002	-1.849838e+001
187797188	-4.680624e-001	9.438514e+001	-4.128565e+001	6.389098e+001	-4.257771e+001	6.553417e+001	-1.097077e-002	-1.982019e+001
200297000	-4.722569e-001	5.260119e+001	-4.074545e+001	5.960790e+001	-4.106004e+001	6.368612e+001	-1.173982e-002	-2.113847e+001
212796813	-4.654671e-001	1.026792e+001	-4.045552e+001	5.628691e+001	-4.037033e+001	5.685650e+001	-1.275931e-002	-2.246028e+001
225296625	-4.586947e-001	-3.238588e+001	-4.027814e+001	5.404547e+001	-4.036769e+001	5.385414e+001	-1.663414e-002	-2.379151e+001
237796438	-4.670959e-001	-7.488353e+001	-4.003600e+001	5.309320e+001	-3.983900e+001	5.339194e+001	-1.688893e-002	-2.510264e+001
250296250	-4.909187e-001	-1.168365e+002	-3.952579e+001	5.318999e+001	-3.919039e+001	4.891309e+001	-1.885276e-002	-2.643043e+001
262796063	-5.202603e-001	-1.581155e+002	-3.885243e+001	5.173912e+001	-3.934523e+001	4.422810e+001	-2.020511e-002	-2.774846e+001
275295875	-5.535790e-001	1.610360e+002	-3.819002e+001	4.906378e+001	-3.968307e+001	4.541968e+001	-1.878507e-002	-2.908181e+001
287795688	-5.821331e-001	1.203160e+002	-3.770538e+001	4.497320e+001	-3.909860e+001	4.918278e+001	-2.117150e-002	-3.039472e+001
300295500	-5.982716e-001	7.921640e+001	-3.751293e+001	4.101154e+001	-3.794132e+001	4.822492e+001	-2.171856e-002	-3.171776e+001
312795313	-6.013299e-001	3.749929e+001	-3.744514e+001	3.843362e+001	-3.725035e+001	4.231384e+001	-2.323139e-002	-3.304882e+001
325295125	-6.003159e-001	-4.842145e+000	-3.738021e+001	3.655141e+001	-3.725183e+001	3.740282e+001	-2.421990e-002	-3.437169e+001
337794938	-6.051538e-001	-4.747468e+001	-3.719524e+001	3.589594e+001	-3.726350e+001	3.626688e+001	-2.794201e-002	-3.567458e+001
350294750	-6.148476e-001	-8.989563e+001	-3.689083e+001	3.492014e+001	-3.690941e+001	3.513631e+001	-2.606053e-002	-3.700988e+001
362794563	-6.417269e-001	-1.317372e+002	-3.651027e+001	3.337193e+001	-3.665447e+001	3.189073e+001	-3.139913e-002	-3.832408e+001
375294375	-6.702476e-001	-1.729442e+002	-3.619815e+001	3.166774e+001	-3.669842e+001	2.946757e+001	-3.116339e-002	-3.966927e+001
387794188	-6.978202e-001	1.463429e+002	-3.585990e+001	2.904965e+001	-3.679869e+001	2.975889e+001	-3.563355e-002	-4.099997e+001
400294000	-7.160901e-001	1.055915e+002	-3.557754e+001	2.645643e+001	-3.632213e+001	3.153015e+001	-3.655021e-002	-4.231331e+001
412793813	-7.331213e-001	6.444165e+001	-3.541671e+001	2.357996e+001	-3.543535e+001	2.962206e+001	-3.441203e-002	-4.364678e+001
425293625	-7.389471e-001	2.258348e+001	-3.530857e+001	2.107797e+001	-3.494763e+001	2.406243e+001	-3.898172e-002	-4.496149e+001
437793438	-7.424895e-001	-1.996052e+001	-3.523213e+001	1.896030e+001	-3.512127e+001	1.933945e+001	-3.939767e-002	-4.629246e+001
450293250	-7.548156e-001	-6.279824e+001	-3.518974e+001	1.765444e+001	-3.527655e+001	1.848783e+001	-4.176750e-002	-4.763374e+001
462793063	-7.680769e-001	-1.054049e+002	-3.497747e+001	1.673654e+001	-3.499999e+001	1.749135e+001	-4.318927e-002	-4.894959e+001
475292875	-7.962357e-001	-1.473827e+002	-3.466960e+001	1.511107e+001	-3.484547e+001	1.441766e+001	-4.270335e-002	-5.026896e+001
487792688	-8.211206e-001	1.713568e+002	-3.438771e+001	1.259440e+001	-3.502071e+001	1.302754e+001	-4.393389e-002	-5.161814e+001
500292500	-8.376876e-001	1.305464e+002	-3.421943e+001	9.362406e+000	-3.484422e+001	1.392811e+001	-4.519037e-002	-5.294118e+001
512792313	-8.541427e-001	8.977549e+001	-3.422207e+001	6.448292e+000	-3.422121e+001	1.295377e+001	-4.555267e-002	-5.427030e+001
525292125	-8.599159e-001	4.863555e+001	-3.432963e+001	4.367051e+000	-3.382924e+001	8.786954e+000	-4.672264e-002	-5.560289e+001
537791938	-8.629531e-001	6.928481e+000	-3.437293e+001	3.335908e+000	-3.393735e+001	4.611794e+000	-5.023639e-002	-5.692538e+001
550291750	-8.711623e-001	-3.527359e+001	-3.425881e+001	2.884652e+000	-3.404242e+001	3.065982e+000	-5.349079e-002	-5.825913e+001
562791563	-8.806986e-001	-7.760536e+001	-3.401658e+001	1.928403e+000	-3.394127e+001	2.428600e+000	-5.349717e-002	-5.963284e+001
575291375	-9.086821e-001	-1.196112e+002	-3.378128e+001	-6.493470e-002	-3.377666e+001	4.541118e-001	-5.802051e-002	-6.094273e+001
587791188	-9.354115e-001	-1.609853e+002	-3.363710e+001	-2.548854e+000	-3.371897e+001	-1.574016e+000	-5.694025e-002	-6.226876e+001
600291000	-9.641115e-001	1.581445e+002	-3.355950e+001	-4.627183e+000	-3.368247e+001	-2.788032e+000	-6.018928e-002	-6.362507e+001
612790813	-9.791594e-001	1.174848e+002	-3.352989e+001	-6.449575e+000	-3.353133e+001	-3.712802e+000	-5.892391e-002	-6.495850e+001
625290625	-9.909905e-001	7.655685e+001	-3.343395e+001	-8.025416e+000	-3.322703e+001	-5.040671e+000	-6.236992e-002	-6.629308e+001
637790438	-1.003805e+000	3.498591e+001	-3.330926e+001	-9.734405e+000	-3.294620e+001	-7.902131e+000	-6.448092e-002	-6.762344e+001
650290250	-1.009055e+000	-7.345273e+000	-3.316960e+001	-1.191755e+001	-3.283528e+001	-1.177130e+001	-6.606677e-002	-6.897351e+001
662790063	-1.021623e+000	-5.013611e+001	-3.312018e+001	-1.406057e+001	-3.299336e+001	-1.449373e+001	-6.438555e-002	-7.031728e+001
675289875	-1.040676e+000	-9.286732e+001	-3.309181e+001	-1.605865e+001	-3.309907e+001	-1.554700e+001	-6.824032e-002	-7.166380e+001
687789688	-1.061330e+000	-1.350308e+002	-3.306188e+001	-1.773585e+001	-3.300607e+001	-1.657268e+001	-7.242501e-002	-7.301827e+001
700289500	-1.079889e+000	-1.763662e+002	-3.300835e+001	-1.945636e+001	-3.290923e+001	-1.861812e+001	-7.188404e-002	-7.435343e+001
712789313	-1.096194e+000	1.429871e+002	-3.292030e+001	-2.111465e+001	-3.287609e+001	-1.998483e+001	-7.638628e-002	-7.571753e+001
725289125	-1.105231e+000	1.024976e+002	-3.284062e+001	-2.336363e+001	-3.273863e+001	-2.140410e+001	-7.897734e-002	-7.705909e+001
737788938	-1.117314e+000	6.163974e+001	-3.282065e+001	-2.529273e+001	-3.256545e+001	-2.358803e+001	-8.048697e-002	-7.840453e+001
750288750	-1.123722e+000	1.992861e+001	-3.279821e+001	-2.718064e+001	-3.247871e+001	-2.630216e+001	-7.988046e-002	-7.976486e+001
762788563	-1.136860e+000	-2.254945e+001	-3.278898e+001	-2.894201e+001	-3.250839e+001	-2.880688e+001	-8.917724e-002	-8.110746e+001
775288375	-1.157241e+000	-6.550160e+001	-3.273095e+001	-3.069808e+001	-3.257379e+001	-3.107090e+001	-8.990389e-002	-8.246417e+001
787788188	-1.175444e+000	-1.082366e+002	-3.271545e+001	-3.312933e+001	-3.262464e+001	-3.269251e+001	-9.126490e-002	-8.380923e+001
800288000	-1.191552e+000	-1.501663e+002	-3.277900e+001	-3.510296e+001	-3.262764e+001	-3.366911e+001	-9.582477e-002	-8.514050e+001
812787813	-1.200497e+000	1.689195e+002	-3.289620e+001	-3.660388e+001	-3.251242e+001	-3.562219e+001	-9.847671e-002	-8.652045e+001
825287625	-1.202842e+000	1.287159e+002	-3.293463e+001	-3.746367e+001	-3.252625e+001	-3.834850e+001	-1.064849e-001	-8.785433e+001
837787438	-1.206929e+000	8.866842e+001	-3.285396e+001	-3.821691e+001	-3.269914e+001	-3.997315e+001	-1.017938e-001	-8.921759e+001
850287250	-1.211295e+000	4.812330e+001	-3.264235e+001	-3.933701e+001	-3.270249e+001	-3.980425e+001	-1.083286e-001	-9.057588e+001
862787063	-1.232288e+000	6.608378e+000	-3.245856e+001	-4.168155e+001	-3.240223e+001	-4.108025e+001	-1.114572e-001	-9.194039e+001
875286875	-1.265609e+000	-3.590823e+001	-3.237360e+001	-4.477077e+001	-3.214801e+001	-4.469234e+001	-1.151836e-001	-9.329495e+001
887786688	-1.293209e+000	-7.899749e+001	-3.244081e+001	-4.771373e+001	-3.233606e+001	-4.867175e+001	-1.200884e-001	-9.466813e+001
900286500	-1.324372e+000	-1.219197e+002	-3.261669e+001	-5.009427e+001	-3.262418e+001	-5.024880e+001	-1.199683e-001	-9.601981e+001
912786313	-1.330546e+000	-1.640665e+002	-3.279290e+001	-5.139310e+001	-3.267414e+001	-5.068411e+001	-1.224872e-001	-9.736060e+001
925286125	-1.322690e+000	1.547680e+002	-3.285889e+001	-5.235074e+001	-3.258090e+001	-5.234857e+001	-1.284732e-001	-9.872830e+001
937785938	-1.308888e+000	1.142943e+002	-3.283364e+001	-5.338006e+001	-3.257928e+001	-5.498226e+001	-1.330693e-001	-1.001074e+002
950285750	-1.292296e+000	7.391666e+001	-3.273843e+001	-5.504911e+001	-3.274788e+001	-5.709360e+001	-1.304890e-001	-1.014817e+002
962785563	-1.307620e+000	3.311433e+001	-3.265707e+001	-5.707837e+001	-3.287131e+001	-5.799974e+001	-1.367045e-001	-1.028456e+002
975285375	-1.332115e+000	-8.580967e+000	-3.262100e+001	-5.956110e+001	-3.275831e+001	-5.880647e+001	-1.380520e-001	-1.042364e+002
987785188	-1.363274e+000	-5.106642e+001	-3.265282e+001	-6.239948e+001	-3.257500e+001	-6.149044e+001	-1.370560e-001	-1.056014e+002
1000285000	-1.393636e+000	-9.384370e+001	-3.281081e+001	-6.517289e+001	-3.271769e+001	-6.537979e+001	-1.452346e-001	-1.069610e+002
1012784813	-1.409166e+000	-1.361986e+002	-3.305270e+001	-6.736451e+001	-3.310939e+001	-6.715983e+001	-1.447658e-001	-1.083404e+002
1025284625	-1.399732e+000	-1.776681e+002	-3.331042e+001	-6.849971e+001	-3.320513e+001	-6.718938e+001	-1.477437e-001	-1.097431e+002
1037784438	-1.385026e+000	1.418227e+002	-3.347111e+001	-6.878692e+001	-3.305889e+001	-6.914464e+001	-1.515480e-001	-1.110979e+002
1050284250	-1.372961e+000	1.018213e+002	-3.343893e+001	-6.896362e+001	-3.326293e+001	-7.230432e+001	-1.538691e-001	-1.125100e+002
1062784063	-1.370636e+000	6.174018e+001	-3.324528e+001	-7.011167e+001	-3.365066e+001	-7.305533e+001	-1.575763e-001	-1.138790e+002
1075283875	-1.390517e+000	2.092436e+001	-3.304822e+001	-7.281373e+001	-3.359375e+001	-7.186039e+001	-1.546778e-001	-1.152768e+002
1087783688	-1.429381e+000	-2.102132e+001	-3.302969e+001	-7.652113e+001	-3.312492e+001	-7.379020e+001	-1.581011e-001	-1.166914e+002
1100283500	-1.469888e+000	-6.384220e+001	-3.321883e+001	-8.037317e+001	-3.307333e+001	-7.921782e+001	-1.591672e-001	-1.180370e+002
1112783313	-1.495949e+000	-1.069442e+002	-3.360201e+001	-8.326256e+001	-3.363615e+001	-8.317850e+001	-1.662964e-001	-1.194429e+002
1125283125	-1.492807e+000	-1.494977e+002	-3.404230e+001	-8.463678e+001	-3.411885e+001	-8.312042e+001	-1.684773e-001	-1.208344e+002
1137782938	-1.478481e+000	1.690027e+002	-3.433857e+001	-8.498191e+001	-3.411811e+001	-8.309593e+001	-1.725349e-001	-1.222633e+002
1150282750	-1.453240e+000	1.285352e+002	-3.442595e+001	-8.485412e+001	-3.405049e+001	-8.532609e+001	-1.716082e-001	-1.236394e+002
1162782563	-1.441117e+000	8.868089e+001	-3.436492e+001	-8.560208e+001	-3.429496e+001	-8.806165e+001	-1.728187e-001	-1.250416e+002
1175282375	-1.440992e+000	4.861077e+001	-3.425686e+001	-8.768517e+001	-3.463569e+001	-8.928739e+001	-1.804308e-001	-1.264559e+002
1187782188	-1.465257e+000	7.741319e+000	-3.423489e+001	-9.064116e+001	-3.474785e+001	-8.879092e+001	-1.831482e-001	-1.278764e+002
1200282000	-1.509259e+000	-3.428672e+001	-3.436882e+001	-9.439648e+001	-3.445552e+001	-8.983072e+001	-1.863360e-001	-1.292682e+002
1212781813	-1.550283e+000	-7.717660e+001	-3.468593e+001	-9.774131e+001	-3.437165e+001	-9.496385e+001	-1.890924e-001	-1.306870e+002
1225281625	-1.580232e+000	-1.202049e+002	-3.521498e+001	-1.003375e+002	-3.495032e+001	-9.970536e+001	-1.917520e-001	-1.320960e+002
1237781438	-1.572077e+000	-1.625728e+002	-3.576132e+001	-1.012506e+002	-3.568821e+001	-1.000462e+002	-1.950469e-001	-1.335158e+002
1250281250	-1.546266e+000	1.562139e+002	-3.605048e+001	-1.007341e+002	-3.578611e+001	-9.870837e+001	-1.951552e-001	-1.349107e+002
1262781063	-1.514931e+000	1.159736e+002	-3.611028e+001	-1.006406e+002	-3.572644e+001	-1.009790e+002	-1.986913e-001	-1.363241e+002
1275280875	-1.498916e+000	7.616616e+001	-3.604734e+001	-1.021532e+002	-3.611240e+001	-1.039839e+002	-1.993524e-001	-1.377734e+002
1287780688	-1.508013e+000	3.594567e+001	-3.607365e+001	-1.057318e+002	-3.664500e+001	-1.034156e+002	-2.046863e-001	-1.391801e+002
1300280500	-1.544988e+000	-5.244795e+000	-3.635905e+001	-1.098211e+002	-3.637013e+001	-1.023349e+002	-2.055845e-001	-1.405984e+002
1312780313	-1.594107e+000	-4.768462e+001	-3.700243e+001	-1.131610e+002	-3.598720e+001	-1.074789e+002	-2.042849e-001	-1.420292e+002
1325280125	-1.637324e+000	-9.093277e+001	-3.780413e+001	-1.146689e+002	-3.662875e+001	-1.148770e+002	-2.071035e-001	-1.434961e+002
1337779938	-1.658606e+000	-1.341199e+002	-3.841341e+001	-1.140028e+002	-3.792713e+001	-1.165739e+002	-2.130704e-001	-1.449144e+002
1350279750	-1.637245e+000	-1.763548e+002	-3.875279e+001	-1.125330e+002	-3.845593e+001	-1.128944e+002	-2.174862e-001	-1.463559e+002
1362779563	-1.598288e+000	1.427003e+002	-3.882599e+001	-1.127025e+002	-3.829658e+001	-1.125477e+002	-2.157941e-001	-1.477759e+002
1375279375	-1.560213e+000	1.028036e+002	-3.902456e+001	-1.146087e+002	-3.847000e+001	-1.159612e+002	-2.184778e-001	-1.492785e+002
1387779188	-1.550001e+000	6.321786e+001	-3.928940e+001	-1.169386e+002	-3.905210e+001	-1.181639e+002	-2.262752e-001	-1.507076e+002
1400279000	-1.565739e+000	2.308987e+001	-3.977449e+001	-1.197213e+002	-3.949679e+001	-1.178400e+002	-2.284001e-001	-1.521514e+002
1412778813	-1.614636e+000	-1.825477e+001	-4.037126e+001	-1.210877e+002	-3.953269e+001	-1.197761e+002	-2.307466e-001	-1.535988e+002
1425278625	-1.682382e+000	-6.098479e+001	-4.105581e+001	-1.218008e+002	-4.002089e+001	-1.252326e+002	-2.335641e-001	-1.550584e+002
1437778438	-1.729413e+000	-1.046450e+002	-4.163492e+001	-1.225291e+002	-4.113524e+001	-1.288167e+002	-2.351679e-001	-1.565292e+002
1450278250	-1.740172e+000	-1.481526e+002	-4.218232e+001	-1.229104e+002	-4.230844e+001	-1.270069e+002	-2.402926e-001	-1.580001e+002
1462778063	-1.708372e+000	1.694350e+002	-4.286331e+001	-1.234454e+002	-4.285258e+001	-1.247190e+002	-2.428656e-001	-1.594783e+002
1475277875	-1.653426e+000	1.284543e+002	-4.353261e+001	-1.248334e+002	-4.314486e+001	-1.260181e+002	-2.482464e-001	-1.609559e+002
1487777688	-1.606599e+000	8.859290e+001	-4.433393e+001	-1.259672e+002	-4.391608e+001	-1.281330e+002	-2.518390e-001	-1.624106e+002
1500277500	-1.592461e+000	4.903989e+001	-4.538968e+001	-1.268053e+002	-4.505941e+001	-1.293917e+002	-2.539192e-001	-1.639047e+002
1512777313	-1.608225e+000	8.966823e+000	-4.649641e+001	-1.275089e+002	-4.602162e+001	-1.291799e+002	-2.597895e-001	-1.654023e+002
1525277125	-1.667061e+000	-3.232531e+001	-4.787338e+001	-1.263232e+002	-4.727706e+001	-1.309610e+002	-2.616299e-001	-1.668670e+002
1537776938	-1.735942e+000	-7.492826e+001	-4.933410e+001	-1.238671e+002	-4.926820e+001	-1.318713e+002	-2.664129e-001	-1.683717e+002
1550276750	-1.780049e+000	-1.182578e+002	-5.113635e+001	-1.202292e+002	-5.166455e+001	-1.251669e+002	-2.689017e-001	-1.698895e+002
1562776563	-1.784029e+000	-1.613320e+002	-5.320561e+001	-1.132079e+002	-5.350553e+001	-1.143719e+002	-2.727803e-001	-1.713723e+002
1575276375	-1.749254e+000	1.567780e+002	-5.548277e+001	-1.025897e+002	-5.545614e+001	-1.033252e+002	-2.752337e-001	-1.728678e+002
1587776188	-1.698131e+000	1.162278e+002	-5.801745e+001	-8.149397e+001	-5.756014e+001	-8.292988e+001	-2.750192e-001	-1.743849e+002
1600276000	-1.658789e+000	7.662735e+001	-5.846918e+001	-4.534362e+001	-5.792265e+001	-4.943823e+001	-2.821859e-001	-1.759049e+002
1612775813	-1.659991e+000	3.709684e+001	-5.603349e+001	-1.902059e+001	-5.554382e+001	-2.479889e+001	-2.842412e-001	-1.774077e+002
1625275625	-1.702209e+000	-3.271787e+000	-5.283794e+001	-6.709908e+000	-5.289450e+001	-1.419577e+001	-2.945694e-001	-1.789508e+002
1637775438	-1.784777e+000	-4.515948e+001	-5.026462e+001	1.276064e+000	-5.103281e+001	-7.904414e+000	-2.940443e-001	1.795242e+002
1650275250	-1.870366e+000	-8.860251e+001	-4.768869e+001	2.835999e+000	-4.911270e+001	-9.713737e-001	-2.978566e-001	1.779960e+002
1662775063	-1.927858e+000	-1.328361e+002	-4.586352e+001	8.772401e-001	-4.678237e+001	1.398265e+000	-3.005326e-001	1.764764e+002
1675274875	-1.918703e+000	-1.766848e+002	-4.454755e+001	-1.855606e+000	-4.499650e+001	-1.693397e+000	-3.033003e-001	1.749157e+002
1687774688	-1.865202e+000	1.407700e+002	-4.366647e+001	-4.653797e+000	-4.413215e+001	-5.555165e+000	-3.070831e-001	1.733768e+002
1700274500	-1.800129e+000	9.972207e+001	-4.313611e+001	-5.115970e+000	-4.350118e+001	-5.321778e+000	-3.099187e-001	1.718239e+002
1712774313	-1.758722e+000	5.957549e+001	-4.242860e+001	-4.760522e+000	-4.250889e+001	-4.816266e+000	-3.148606e-001	1.702607e+002
1725274125	-1.763632e+000	1.945129e+001	-4.149846e+001	-3.634580e+000	-4.162954e+001	-6.478683e+000	-3.214287e-001	1.687052e+002
1737773938	-1.816322e+000	-2.159231e+001	-4.039983e+001	-3.745954e+000	-4.103578e+001	-7.599099e+000	-3.239262e-001	1.671373e+002
1750273750	-1.905336e+000	-6.412691e+001	-3.933884e+001	-5.984661e+000	-4.039388e+001	-7.580908e+000	-3.274691e-001	1.655413e+002
1762773563	-1.987280e+000	-1.079925e+002	-3.851002e+001	-9.518962e+000	-3.949345e+001	-7.417448e+000	-3.301778e-001	1.639664e+002
1775273375	-2.018465e+000	-1.522448e+002	-3.797236e+001	-1.409200e+001	-3.844863e+001	-1.035812e+001	-3.368689e-001	1.623659e+002
1787773188	-1.993938e+000	1.642540e+002	-3.770022e+001	-1.751182e+001	-3.784321e+001	-1.578053e+001	-3.399209e-001	1.607717e+002
1800273000	-1.925307e+000	1.221845e+002	-3.760522e+001	-1.956680e+001	-3.785172e+001	-1.955328e+001	-3.457689e-001	1.591600e+002
1812772813	-1.858890e+000	8.155213e+001	-3.746632e+001	-2.040566e+001	-3.783826e+001	-1.925010e+001	-3.484231e-001	1.575544e+002
1825272625	-1.825034e+000	4.157141e+001	-3.709926e+001	-1.985982e+001	-3.728332e+001	-1.875229e+001	-3.537396e-001	1.559486e+002
1837772438	-1.856489e+000	1.304207e+000	-3.655257e+001	-1.979192e+001	-3.674713e+001	-2.150588e+001	-3.614349e-001	1.543254e+002
1850272250	-1.930436e+000	-4.006803e+001	-3.576855e+001	-2.124876e+001	-3.663405e+001	-2.360664e+001	-3.636453e-001	1.526842e+002
1862772063	-2.031673e+000	-8.299472e+001	-3.514625e+001	-2.504878e+001	-3.631089e+001	-2.183397e+001	-3.676928e-001	1.510474e+002
1875271875	-2.111837e+000	-1.270798e+002	-3.477763e+001	-3.024030e+001	-3.525249e+001	-2.323483e+001	-3.737621e-001	1.494043e+002
