!Agilent Technologies,E5071C,MY46215201,A.10.06
!Date: Tue Jul 02 13:06:39 2019
!Data & Calibration Information:
!Freq	S11:SOLT2(ON)	S21:SOLT2(ON)	S12:SOLT2(ON)	S22:SOLT2(ON)
!PortZ  Port1:50+j0    Port2:50+j0
!Above PortZ is port z conversion or system Z0 setting when saving the data.
!When reading, reference impedance value at option line is always used.
# Hz S dB R 50
300000	-1.436966e+000	-2.320221e+001	-1.454057e+001	6.349028e+000	-5.849075e+001	1.771502e+002	-1.184301e-001	-2.889466e+001
15299625	-1.558009e+001	-1.135083e+002	1.632074e+001	-1.629940e+002	-2.356122e+001	2.173607e+001	-1.077436e+001	7.471874e+001
30299250	-1.643725e+001	-1.381394e+002	1.660616e+001	-1.761357e+002	-2.293360e+001	1.160366e+001	-1.351397e+001	3.264230e+001
45298875	-1.612578e+001	-1.495363e+002	1.652660e+001	1.777226e+002	-2.260374e+001	7.325762e+000	-1.478167e+001	1.264142e+001
60298500	-1.567147e+001	-1.578388e+002	1.639351e+001	1.736857e+002	-2.237463e+001	4.090601e+000	-1.562877e+001	6.592740e-001
75298125	-1.536208e+001	-1.643848e+002	1.626923e+001	1.706734e+002	-2.220923e+001	1.398558e+000	-1.630524e+001	-7.129194e+000
90297750	-1.514792e+001	-1.701044e+002	1.616426e+001	1.682003e+002	-2.208320e+001	-1.092198e+000	-1.689739e+001	-1.223537e+001
105297375	-1.494493e+001	-1.749124e+002	1.608022e+001	1.660022e+002	-2.197003e+001	-3.547329e+000	-1.740700e+001	-1.620380e+001
120297000	-1.479467e+001	-1.794726e+002	1.602072e+001	1.639872e+002	-2.190898e+001	-5.700190e+000	-1.778280e+001	-1.947994e+001
135296625	-1.467295e+001	1.764416e+002	1.597991e+001	1.619636e+002	-2.183929e+001	-7.785348e+000	-1.815350e+001	-2.190893e+001
150296250	-1.460290e+001	1.727040e+002	1.593862e+001	1.600103e+002	-2.182282e+001	-9.947127e+000	-1.837696e+001	-2.416395e+001
165295875	-1.454149e+001	1.690521e+002	1.590458e+001	1.580647e+002	-2.177463e+001	-1.190347e+001	-1.863359e+001	-2.602026e+001
180295500	-1.452730e+001	1.657777e+002	1.587524e+001	1.561644e+002	-2.175992e+001	-1.379145e+001	-1.875888e+001	-2.786747e+001
195295125	-1.445539e+001	1.625842e+002	1.584957e+001	1.543062e+002	-2.172441e+001	-1.572484e+001	-1.891408e+001	-2.916038e+001
210294750	-1.441325e+001	1.595121e+002	1.583766e+001	1.523801e+002	-2.172268e+001	-1.749241e+001	-1.905743e+001	-3.055840e+001
225294375	-1.438441e+001	1.563334e+002	1.581353e+001	1.504608e+002	-2.172067e+001	-1.943208e+001	-1.917130e+001	-3.211926e+001
240294000	-1.434579e+001	1.533954e+002	1.579007e+001	1.485646e+002	-2.170355e+001	-2.113694e+001	-1.922555e+001	-3.353057e+001
255293625	-1.433747e+001	1.505532e+002	1.576309e+001	1.467509e+002	-2.170304e+001	-2.281604e+001	-1.923272e+001	-3.489570e+001
270293250	-1.433688e+001	1.476302e+002	1.574970e+001	1.450313e+002	-2.168831e+001	-2.448053e+001	-1.919357e+001	-3.727093e+001
285292875	-1.432938e+001	1.448156e+002	1.575221e+001	1.431696e+002	-2.169281e+001	-2.616610e+001	-1.925508e+001	-3.859154e+001
300292500	-1.434512e+001	1.420343e+002	1.574356e+001	1.413148e+002	-2.169031e+001	-2.789136e+001	-1.932486e+001	-3.974259e+001
315292125	-1.435926e+001	1.393516e+002	1.573595e+001	1.393926e+002	-2.168397e+001	-2.963629e+001	-1.939001e+001	-4.120624e+001
330291750	-1.435596e+001	1.367476e+002	1.572590e+001	1.374913e+002	-2.168449e+001	-3.138174e+001	-1.949720e+001	-4.264760e+001
345291375	-1.435201e+001	1.340998e+002	1.570586e+001	1.355738e+002	-2.168342e+001	-3.306400e+001	-1.949533e+001	-4.450000e+001
360291000	-1.435341e+001	1.314607e+002	1.568958e+001	1.337305e+002	-2.169282e+001	-3.468785e+001	-1.950277e+001	-4.609152e+001
375290625	-1.439989e+001	1.285803e+002	1.566731e+001	1.318432e+002	-2.171957e+001	-3.637108e+001	-1.945130e+001	-4.732160e+001
390290250	-1.447365e+001	1.261373e+002	1.563902e+001	1.300360e+002	-2.174545e+001	-3.788546e+001	-1.937977e+001	-4.838675e+001
405289875	-1.455710e+001	1.239542e+002	1.562250e+001	1.283805e+002	-2.175741e+001	-3.930331e+001	-1.930228e+001	-4.994026e+001
420289500	-1.456696e+001	1.219370e+002	1.562516e+001	1.266651e+002	-2.176255e+001	-4.078420e+001	-1.929918e+001	-5.172384e+001
435289125	-1.452171e+001	1.197397e+002	1.563779e+001	1.249055e+002	-2.171787e+001	-4.225173e+001	-1.933043e+001	-5.379673e+001
450288750	-1.451047e+001	1.172554e+002	1.564400e+001	1.230695e+002	-2.170950e+001	-4.388779e+001	-1.932677e+001	-5.559549e+001
465288375	-1.451337e+001	1.147588e+002	1.564257e+001	1.212140e+002	-2.171296e+001	-4.552509e+001	-1.928470e+001	-5.737966e+001
480288000	-1.452762e+001	1.123880e+002	1.564419e+001	1.193545e+002	-2.170407e+001	-4.716222e+001	-1.927155e+001	-5.900186e+001
495287625	-1.453279e+001	1.099598e+002	1.565095e+001	1.174881e+002	-2.170356e+001	-4.868422e+001	-1.926613e+001	-6.051985e+001
510287250	-1.451906e+001	1.075083e+002	1.565347e+001	1.155676e+002	-2.170307e+001	-5.044112e+001	-1.928419e+001	-6.211563e+001
525286875	-1.453830e+001	1.049774e+002	1.565402e+001	1.136949e+002	-2.170889e+001	-5.195636e+001	-1.929926e+001	-6.387516e+001
540286500	-1.455195e+001	1.024939e+002	1.565300e+001	1.118096e+002	-2.169659e+001	-5.353886e+001	-1.930395e+001	-6.573302e+001
555286125	-1.457785e+001	1.001027e+002	1.564291e+001	1.099605e+002	-2.170345e+001	-5.517704e+001	-1.928473e+001	-6.749292e+001
570285750	-1.458291e+001	9.763681e+001	1.564539e+001	1.080617e+002	-2.172429e+001	-5.677883e+001	-1.925213e+001	-6.899981e+001
585285375	-1.460566e+001	9.521140e+001	1.564348e+001	1.061854e+002	-2.170825e+001	-5.835127e+001	-1.922321e+001	-7.039743e+001
600285000	-1.461512e+001	9.279474e+001	1.563533e+001	1.043139e+002	-2.171980e+001	-5.993979e+001	-1.924913e+001	-7.164244e+001
615284625	-1.464818e+001	9.028519e+001	1.562599e+001	1.024445e+002	-2.172492e+001	-6.147218e+001	-1.928391e+001	-7.326255e+001
630284250	-1.466800e+001	8.790493e+001	1.561973e+001	1.005839e+002	-2.173445e+001	-6.310427e+001	-1.928879e+001	-7.476523e+001
645283875	-1.466598e+001	8.546378e+001	1.561204e+001	9.875002e+001	-2.173321e+001	-6.458584e+001	-1.926418e+001	-7.669158e+001
660283500	-1.469357e+001	8.303289e+001	1.560520e+001	9.690196e+001	-2.174106e+001	-6.614970e+001	-1.920164e+001	-7.828021e+001
675283125	-1.471388e+001	8.043400e+001	1.560189e+001	9.505002e+001	-2.173782e+001	-6.767528e+001	-1.913964e+001	-7.966856e+001
690282750	-1.476476e+001	7.806879e+001	1.559753e+001	9.322328e+001	-2.174867e+001	-6.929142e+001	-1.911711e+001	-8.113897e+001
705282375	-1.479626e+001	7.586847e+001	1.559678e+001	9.138321e+001	-2.176878e+001	-7.071678e+001	-1.909970e+001	-8.242969e+001
720282000	-1.480918e+001	7.355126e+001	1.559792e+001	8.952504e+001	-2.176552e+001	-7.227473e+001	-1.909155e+001	-8.418962e+001
735281625	-1.483313e+001	7.110269e+001	1.559998e+001	8.768073e+001	-2.176496e+001	-7.381226e+001	-1.905491e+001	-8.617395e+001
750281250	-1.485924e+001	6.877009e+001	1.560005e+001	8.582546e+001	-2.178934e+001	-7.538466e+001	-1.899807e+001	-8.813308e+001
765280875	-1.489648e+001	6.644328e+001	1.560506e+001	8.395237e+001	-2.176402e+001	-7.685920e+001	-1.890736e+001	-8.974822e+001
780280500	-1.493225e+001	6.424523e+001	1.560918e+001	8.209102e+001	-2.176401e+001	-7.843338e+001	-1.885242e+001	-9.117528e+001
795280125	-1.493872e+001	6.202842e+001	1.560546e+001	8.023492e+001	-2.176720e+001	-7.998912e+001	-1.882893e+001	-9.263340e+001
810279750	-1.494509e+001	5.972938e+001	1.560260e+001	7.834151e+001	-2.176288e+001	-8.150192e+001	-1.880037e+001	-9.411349e+001
825279375	-1.497049e+001	5.732091e+001	1.560114e+001	7.648972e+001	-2.177424e+001	-8.305532e+001	-1.878952e+001	-9.597302e+001
840279000	-1.499578e+001	5.496116e+001	1.560462e+001	7.464023e+001	-2.176950e+001	-8.457111e+001	-1.875083e+001	-9.780396e+001
855278625	-1.502079e+001	5.279240e+001	1.560712e+001	7.278976e+001	-2.178018e+001	-8.621308e+001	-1.868490e+001	-9.957294e+001
870278250	-1.503653e+001	5.053725e+001	1.561625e+001	7.088865e+001	-2.177132e+001	-8.770302e+001	-1.860612e+001	-1.010681e+002
885277875	-1.505741e+001	4.811751e+001	1.561817e+001	6.897007e+001	-2.179510e+001	-8.927909e+001	-1.853777e+001	-1.025349e+002
900277500	-1.508190e+001	4.589869e+001	1.561137e+001	6.704425e+001	-2.179385e+001	-9.089429e+001	-1.851652e+001	-1.039505e+002
915277125	-1.511029e+001	4.357865e+001	1.561332e+001	6.511124e+001	-2.179349e+001	-9.241588e+001	-1.849490e+001	-1.056608e+002
930276750	-1.513318e+001	4.136949e+001	1.561193e+001	6.322005e+001	-2.179529e+001	-9.393023e+001	-1.846110e+001	-1.075761e+002
945276375	-1.513153e+001	3.907043e+001	1.560869e+001	6.133753e+001	-2.180451e+001	-9.556852e+001	-1.841519e+001	-1.093558e+002
960276000	-1.515750e+001	3.670213e+001	1.560662e+001	5.943267e+001	-2.180658e+001	-9.706915e+001	-1.835498e+001	-1.109542e+002
975275625	-1.519971e+001	3.422994e+001	1.560192e+001	5.754367e+001	-2.180830e+001	-9.859447e+001	-1.825257e+001	-1.123292e+002
990275250	-1.524000e+001	3.197991e+001	1.559828e+001	5.569024e+001	-2.182502e+001	-1.001476e+002	-1.824017e+001	-1.136818e+002
1005274875	-1.528799e+001	2.971920e+001	1.559317e+001	5.383369e+001	-2.182462e+001	-1.016681e+002	-1.822140e+001	-1.152103e+002
1020274500	-1.529433e+001	2.743991e+001	1.559000e+001	5.195330e+001	-2.184004e+001	-1.032577e+002	-1.819606e+001	-1.167243e+002
1035274125	-1.532447e+001	2.497349e+001	1.558757e+001	5.008180e+001	-2.183126e+001	-1.047608e+002	-1.815866e+001	-1.184244e+002
1050273750	-1.535804e+001	2.261403e+001	1.558565e+001	4.820512e+001	-2.183489e+001	-1.063667e+002	-1.804904e+001	-1.202371e+002
1065273375	-1.539842e+001	2.035925e+001	1.558748e+001	4.633323e+001	-2.184924e+001	-1.078840e+002	-1.797850e+001	-1.216888e+002
1080273000	-1.543969e+001	1.804777e+001	1.557949e+001	4.446332e+001	-2.183633e+001	-1.093246e+002	-1.787558e+001	-1.230317e+002
1095272625	-1.546479e+001	1.566357e+001	1.557624e+001	4.259441e+001	-2.185134e+001	-1.109420e+002	-1.784642e+001	-1.244607e+002
1110272250	-1.550390e+001	1.334454e+001	1.557216e+001	4.070232e+001	-2.186529e+001	-1.124411e+002	-1.782070e+001	-1.260455e+002
1125271875	-1.554816e+001	1.095206e+001	1.557160e+001	3.884368e+001	-2.186823e+001	-1.139970e+002	-1.779114e+001	-1.279701e+002
1140271500	-1.560577e+001	8.538912e+000	1.556958e+001	3.700776e+001	-2.186865e+001	-1.154834e+002	-1.771026e+001	-1.296942e+002
1155271125	-1.563354e+001	6.245054e+000	1.557320e+001	3.515254e+001	-2.187520e+001	-1.170200e+002	-1.762155e+001	-1.314401e+002
1170270750	-1.567731e+001	3.751520e+000	1.557064e+001	3.331339e+001	-2.188734e+001	-1.186634e+002	-1.751632e+001	-1.328433e+002
1185270375	-1.571651e+001	1.292585e+000	1.556921e+001	3.144602e+001	-2.189374e+001	-1.201503e+002	-1.747862e+001	-1.341183e+002
1200270000	-1.578409e+001	-1.184692e+000	1.557250e+001	2.961320e+001	-2.189101e+001	-1.216776e+002	-1.747127e+001	-1.356678e+002
1215269625	-1.584370e+001	-3.436427e+000	1.557628e+001	2.771955e+001	-2.189995e+001	-1.232595e+002	-1.746686e+001	-1.371749e+002
1230269250	-1.587379e+001	-5.588112e+000	1.557476e+001	2.584710e+001	-2.189762e+001	-1.247922e+002	-1.740969e+001	-1.391005e+002
1245268875	-1.590942e+001	-7.950967e+000	1.557829e+001	2.396473e+001	-2.190715e+001	-1.262520e+002	-1.732913e+001	-1.409288e+002
1260268500	-1.592971e+001	-1.050710e+001	1.557269e+001	2.206563e+001	-2.190641e+001	-1.278707e+002	-1.720955e+001	-1.424195e+002
1275268125	-1.598110e+001	-1.305145e+001	1.557054e+001	2.019252e+001	-2.190110e+001	-1.294473e+002	-1.710108e+001	-1.435684e+002
1290267750	-1.604333e+001	-1.548577e+001	1.557053e+001	1.836414e+001	-2.193413e+001	-1.309175e+002	-1.705188e+001	-1.449854e+002
1305267375	-1.610192e+001	-1.783415e+001	1.556519e+001	1.647135e+001	-2.192306e+001	-1.325312e+002	-1.702285e+001	-1.462850e+002
1320267000	-1.612996e+001	-2.022561e+001	1.556225e+001	1.459152e+001	-2.193159e+001	-1.340755e+002	-1.701086e+001	-1.478315e+002
1335266625	-1.616780e+001	-2.255772e+001	1.556177e+001	1.270650e+001	-2.194390e+001	-1.355723e+002	-1.700616e+001	-1.495397e+002
1350266250	-1.621471e+001	-2.503532e+001	1.556306e+001	1.086181e+001	-2.194520e+001	-1.370383e+002	-1.695014e+001	-1.516641e+002
1365265875	-1.625902e+001	-2.759733e+001	1.555802e+001	8.978680e+000	-2.196017e+001	-1.385773e+002	-1.684974e+001	-1.531394e+002
1380265500	-1.632267e+001	-3.020719e+001	1.555241e+001	7.137125e+000	-2.195974e+001	-1.401902e+002	-1.676096e+001	-1.545821e+002
1395265125	-1.638431e+001	-3.242666e+001	1.555217e+001	5.287355e+000	-2.197242e+001	-1.417236e+002	-1.670404e+001	-1.558930e+002
1410264750	-1.642866e+001	-3.475443e+001	1.554857e+001	3.405271e+000	-2.198281e+001	-1.432380e+002	-1.665161e+001	-1.571541e+002
1425264375	-1.646613e+001	-3.711625e+001	1.554631e+001	1.556320e+000	-2.198873e+001	-1.447715e+002	-1.662029e+001	-1.587371e+002
1440264000	-1.652245e+001	-3.942931e+001	1.554143e+001	-3.085881e-001	-2.197822e+001	-1.463403e+002	-1.656218e+001	-1.600610e+002
1455263625	-1.656778e+001	-4.201325e+001	1.553873e+001	-2.185964e+000	-2.199953e+001	-1.478951e+002	-1.647616e+001	-1.617160e+002
1470263250	-1.659835e+001	-4.439594e+001	1.553877e+001	-4.040420e+000	-2.199997e+001	-1.493522e+002	-1.641926e+001	-1.633944e+002
1485262875	-1.667786e+001	-4.690455e+001	1.553295e+001	-5.910056e+000	-2.200733e+001	-1.509243e+002	-1.635240e+001	-1.648593e+002
1500262500	-1.674869e+001	-4.928970e+001	1.553155e+001	-7.736960e+000	-2.201855e+001	-1.524468e+002	-1.628954e+001	-1.663913e+002
1515262125	-1.682629e+001	-5.161793e+001	1.553198e+001	-9.605495e+000	-2.203477e+001	-1.540583e+002	-1.623103e+001	-1.677857e+002
1530261750	-1.688400e+001	-5.382236e+001	1.553102e+001	-1.145761e+001	-2.203309e+001	-1.555746e+002	-1.617700e+001	-1.693495e+002
1545261375	-1.690932e+001	-5.620597e+001	1.553177e+001	-1.334489e+001	-2.202697e+001	-1.569772e+002	-1.612985e+001	-1.709104e+002
1560261000	-1.694758e+001	-5.870060e+001	1.553596e+001	-1.519331e+001	-2.205371e+001	-1.586722e+002	-1.607754e+001	-1.724080e+002
1575260625	-1.705112e+001	-6.109163e+001	1.553113e+001	-1.705874e+001	-2.205429e+001	-1.599730e+002	-1.606727e+001	-1.737901e+002
1590260250	-1.711924e+001	-6.349762e+001	1.553172e+001	-1.890382e+001	-2.205636e+001	-1.616856e+002	-1.602577e+001	-1.753172e+002
1605259875	-1.717533e+001	-6.558094e+001	1.553295e+001	-2.078306e+001	-2.206817e+001	-1.631315e+002	-1.595457e+001	-1.767854e+002
1620259500	-1.721705e+001	-6.794587e+001	1.553038e+001	-2.265529e+001	-2.208800e+001	-1.647232e+002	-1.591337e+001	-1.783574e+002
1635259125	-1.729956e+001	-7.055938e+001	1.552876e+001	-2.453265e+001	-2.208853e+001	-1.662136e+002	-1.584542e+001	-1.798814e+002
1650258750	-1.736025e+001	-7.326313e+001	1.552333e+001	-2.642531e+001	-2.210059e+001	-1.677428e+002	-1.577093e+001	1.789181e+002
1665258375	-1.744851e+001	-7.549120e+001	1.552437e+001	-2.827102e+001	-2.209313e+001	-1.692650e+002	-1.572845e+001	1.775087e+002
1680258000	-1.751669e+001	-7.771008e+001	1.552858e+001	-3.012583e+001	-2.209890e+001	-1.707962e+002	-1.567569e+001	1.760720e+002
1695257625	-1.755715e+001	-8.030266e+001	1.552361e+001	-3.199640e+001	-2.210922e+001	-1.723800e+002	-1.562485e+001	1.743873e+002
1710257250	-1.765394e+001	-8.290056e+001	1.552137e+001	-3.386272e+001	-2.210829e+001	-1.738287e+002	-1.556451e+001	1.729828e+002
1725256875	-1.773144e+001	-8.532016e+001	1.552162e+001	-3.574632e+001	-2.212915e+001	-1.755200e+002	-1.549518e+001	1.712874e+002
1740256500	-1.780135e+001	-8.770339e+001	1.551893e+001	-3.759466e+001	-2.214097e+001	-1.769241e+002	-1.540579e+001	1.700514e+002
1755256125	-1.790106e+001	-9.015117e+001	1.551661e+001	-3.945509e+001	-2.213303e+001	-1.784931e+002	-1.533773e+001	1.688343e+002
1770255750	-1.797644e+001	-9.267943e+001	1.551738e+001	-4.132053e+001	-2.214826e+001	1.799965e+002	-1.531437e+001	1.675315e+002
1785255375	-1.803996e+001	-9.523138e+001	1.551645e+001	-4.319603e+001	-2.215461e+001	1.784603e+002	-1.530832e+001	1.660932e+002
1800255000	-1.810702e+001	-9.766176e+001	1.551634e+001	-4.506536e+001	-2.217576e+001	1.769137e+002	-1.528958e+001	1.646241e+002
1815254625	-1.819080e+001	-1.001959e+002	1.551643e+001	-4.691558e+001	-2.218224e+001	1.753961e+002	-1.522173e+001	1.628155e+002
1830254250	-1.824227e+001	-1.027287e+002	1.551208e+001	-4.881343e+001	-2.218220e+001	1.738936e+002	-1.513195e+001	1.614645e+002
1845253875	-1.831304e+001	-1.053570e+002	1.551053e+001	-5.068706e+001	-2.219063e+001	1.723065e+002	-1.505380e+001	1.601079e+002
1860253500	-1.841507e+001	-1.078238e+002	1.550942e+001	-5.255511e+001	-2.219050e+001	1.707777e+002	-1.499753e+001	1.591336e+002
1875253125	-1.850117e+001	-1.104156e+002	1.550751e+001	-5.440192e+001	-2.220784e+001	1.693030e+002	-1.496878e+001	1.579271e+002
1890252750	-1.858157e+001	-1.128368e+002	1.550715e+001	-5.625052e+001	-2.220865e+001	1.677550e+002	-1.495398e+001	1.565043e+002
1905252375	-1.862628e+001	-1.151822e+002	1.550951e+001	-5.811469e+001	-2.223219e+001	1.661135e+002	-1.494178e+001	1.548520e+002
1920252000	-1.868262e+001	-1.179333e+002	1.550745e+001	-6.001568e+001	-2.222656e+001	1.647038e+002	-1.486884e+001	1.529604e+002
1935251625	-1.876164e+001	-1.207045e+002	1.550380e+001	-6.189878e+001	-2.222677e+001	1.632173e+002	-1.476273e+001	1.515315e+002
1950251250	-1.886493e+001	-1.233492e+002	1.550439e+001	-6.375553e+001	-2.223964e+001	1.615515e+002	-1.468113e+001	1.503689e+002
1965250875	-1.895051e+001	-1.257377e+002	1.550954e+001	-6.563113e+001	-2.224899e+001	1.600465e+002	-1.464284e+001	1.493372e+002
1980250500	-1.903178e+001	-1.283136e+002	1.550945e+001	-6.747365e+001	-2.225375e+001	1.585931e+002	-1.463777e+001	1.483786e+002
1995250125	-1.907674e+001	-1.309492e+002	1.550720e+001	-6.937730e+001	-2.227068e+001	1.570375e+002	-1.466180e+001	1.468888e+002
2010249750	-1.916894e+001	-1.335555e+002	1.550735e+001	-7.125327e+001	-2.227571e+001	1.555048e+002	-1.464773e+001	1.451499e+002
2025249375	-1.926684e+001	-1.359421e+002	1.550642e+001	-7.314192e+001	-2.229118e+001	1.539283e+002	-1.458563e+001	1.434074e+002
2040249000	-1.933223e+001	-1.386100e+002	1.550446e+001	-7.503597e+001	-2.228284e+001	1.522329e+002	-1.447598e+001	1.418919e+002
2055248625	-1.937550e+001	-1.410635e+002	1.550417e+001	-7.694127e+001	-2.230102e+001	1.508676e+002	-1.437762e+001	1.407392e+002
2070248250	-1.947066e+001	-1.439100e+002	1.550070e+001	-7.879658e+001	-2.229897e+001	1.492188e+002	-1.432747e+001	1.396276e+002
2085247875	-1.959986e+001	-1.466401e+002	1.549627e+001	-8.067136e+001	-2.231909e+001	1.477257e+002	-1.429208e+001	1.385907e+002
2100247500	-1.971088e+001	-1.489936e+002	1.549062e+001	-8.252593e+001	-2.233947e+001	1.462280e+002	-1.429285e+001	1.371175e+002
2115247125	-1.980822e+001	-1.511182e+002	1.549362e+001	-8.440967e+001	-2.236034e+001	1.446671e+002	-1.426441e+001	1.355729e+002
2130246750	-1.987567e+001	-1.537286e+002	1.548811e+001	-8.631161e+001	-2.235588e+001	1.431036e+002	-1.420781e+001	1.338750e+002
2145246375	-1.992769e+001	-1.563968e+002	1.548207e+001	-8.820162e+001	-2.237173e+001	1.415536e+002	-1.413618e+001	1.324120e+002
2160246000	-2.001403e+001	-1.593488e+002	1.547663e+001	-9.006972e+001	-2.237858e+001	1.401061e+002	-1.407684e+001	1.311244e+002
2175245625	-2.018707e+001	-1.618173e+002	1.547462e+001	-9.189968e+001	-2.238950e+001	1.385380e+002	-1.405707e+001	1.299252e+002
2190245250	-2.033644e+001	-1.642153e+002	1.547347e+001	-9.374925e+001	-2.240239e+001	1.369391e+002	-1.403621e+001	1.286871e+002
2205244875	-2.042679e+001	-1.663562e+002	1.547145e+001	-9.561465e+001	-2.241769e+001	1.355432e+002	-1.402772e+001	1.272046e+002
2220244500	-2.052035e+001	-1.689947e+002	1.546790e+001	-9.749591e+001	-2.242094e+001	1.340031e+002	-1.399433e+001	1.257241e+002
2235244125	-2.064500e+001	-1.717155e+002	1.546579e+001	-9.936656e+001	-2.242593e+001	1.324439e+002	-1.391434e+001	1.244051e+002
2250243750	-2.074645e+001	-1.744256e+002	1.546349e+001	-1.012417e+002	-2.244483e+001	1.309567e+002	-1.385404e+001	1.230903e+002
2265243375	-2.089074e+001	-1.771506e+002	1.546136e+001	-1.031115e+002	-2.245452e+001	1.294325e+002	-1.381810e+001	1.220796e+002
2280243000	-2.103080e+001	-1.797471e+002	1.546009e+001	-1.049680e+002	-2.245165e+001	1.279068e+002	-1.380778e+001	1.209132e+002
